(1573490728.179513) can0 201#06000000400D0300
(1573490728.179680) can0 080#00
(1573490728.179905) can0 181#080000000000
(1573490728.180129) can0 281#181600000400
(1573490728.180323) can0 381#83020A000200
(1573490728.182827) can0 10000002#188D9E03F700BE00
(1573490728.187322) can0 201#06000000400D0300
(1573490728.187487) can0 080#00
(1573490728.187716) can0 181#080000000000
(1573490728.187951) can0 281#181600000400
(1573490728.188137) can0 381#83020A000200
(1573490728.195140) can0 201#06000000400D0300
(1573490728.195318) can0 080#00
(1573490728.195522) can0 181#080000000000
(1573490728.195731) can0 281#181600000400
(1573490728.195936) can0 381#830209000200
(1573490728.202941) can0 201#06000000400D0300
(1573490728.203114) can0 080#00
(1573490728.203343) can0 181#080000000000
(1573490728.203577) can0 281#181600000400
(1573490728.203761) can0 381#83020A000200
(1573490728.210762) can0 201#06000000400D0300
(1573490728.210934) can0 080#00
(1573490728.211194) can0 181#080000000000
(1573490728.211405) can0 281#181600000400
(1573490728.211611) can0 381#83020A000200
(1573490728.218554) can0 201#06000000400D0300
(1573490728.218732) can0 080#00
(1573490728.218958) can0 181#080000000000
(1573490728.219188) can0 281#181600000400
(1573490728.219375) can0 381#83020A000200
(1573490728.226365) can0 201#06000000400D0300
(1573490728.226546) can0 080#00
(1573490728.226763) can0 181#080000000000
(1573490728.226971) can0 281#181600000400
(1573490728.227178) can0 381#83020A000200
(1573490728.234183) can0 201#06000000400D0300
(1573490728.234356) can0 080#00
(1573490728.234586) can0 181#080000000000
(1573490728.234802) can0 281#181600000400
(1573490728.235002) can0 381#82020A000200
(1573490728.242002) can0 201#06000000400D0300
(1573490728.242172) can0 080#00
(1573490728.242403) can0 181#080000000000
(1573490728.242610) can0 281#181600000400
(1573490728.242819) can0 381#83020A000200
(1573490728.246766) can0 001#FF6E03F7001018D0
(1573490728.247021) can0 003#1000000000000000
(1573490728.247258) can0 002#8DCC8D4300000013
(1573490728.249824) can0 201#06000000400D0300
(1573490728.249989) can0 080#00
(1573490728.250249) can0 181#080000000000
(1573490728.250456) can0 281#181600000400
(1573490728.250663) can0 381#82020A000200
(1573490728.256154) can0 234#1122000000000000
(1573490728.257732) can0 201#06000000400D0300
(1573490728.257906) can0 080#00
(1573490728.258135) can0 181#080000000000
(1573490728.258344) can0 281#181600000400
(1573490728.258553) can0 381#830209000200
(1573490728.261734) can0 036#008DA500BE8C924C
(1573490728.265418) can0 201#06000000400D0300
(1573490728.265589) can0 080#00
(1573490728.265823) can0 181#080000000000
(1573490728.266035) can0 281#181600000400
(1573490728.266240) can0 381#82020A000200
(1573490728.273243) can0 201#06000000400D0300
(1573490728.273419) can0 080#00
(1573490728.273644) can0 181#080000000000
(1573490728.273853) can0 281#181600000400
(1573490728.274063) can0 381#82020A000200
(1573490728.281051) can0 201#06000000400D0300
(1573490728.281231) can0 080#00
(1573490728.281455) can0 181#080000000000
(1573490728.281667) can0 281#181600000400
(1573490728.281871) can0 381#83020A000200
(1573490728.286856) can0 10000002#188D9F03F700BE00
(1573490728.288968) can0 201#06000000400D0300
(1573490728.289123) can0 080#00
(1573490728.289371) can0 181#080000000000
(1573490728.289579) can0 281#181600000400
(1573490728.289787) can0 381#82020A000200
(1573490728.296680) can0 201#06000000400D0300
(1573490728.296853) can0 080#00
(1573490728.297110) can0 181#080000000000
(1573490728.297327) can0 281#181600000400
(1573490728.297528) can0 381#83020A000200
(1573490728.304491) can0 201#06000000400D0300
(1573490728.304680) can0 080#00
(1573490728.304924) can0 181#080000000000
(1573490728.305135) can0 281#181600000400
(1573490728.305341) can0 381#82020A000200
(1573490728.312301) can0 201#06000000400D0300
(1573490728.312470) can0 080#00
(1573490728.312708) can0 181#080000000000
(1573490728.312904) can0 281#181600000400
(1573490728.313118) can0 381#82020A000200
(1573490728.320108) can0 201#06000000400D0300
(1573490728.320276) can0 080#00
(1573490728.320508) can0 181#080000000000
(1573490728.320717) can0 281#181600000400
(1573490728.320925) can0 381#83020A000200
(1573490728.327926) can0 201#06000000400D0300
(1573490728.328090) can0 080#00
(1573490728.328317) can0 181#080000000000
(1573490728.328525) can0 281#181600000400
(1573490728.328734) can0 381#83020A000200
(1573490728.335731) can0 201#06000000400D0300
(1573490728.335900) can0 080#00
(1573490728.336129) can0 181#080000000000
(1573490728.336337) can0 281#181600000400
(1573490728.336562) can0 381#83020A000200
(1573490728.343535) can0 201#06000000400D0300
(1573490728.343716) can0 080#00
(1573490728.343946) can0 181#080000000000
(1573490728.344155) can0 281#181600000400
(1573490728.344363) can0 381#83020A000200
(1573490728.351363) can0 201#06000000400D0300
(1573490728.351525) can0 080#00
(1573490728.351754) can0 181#080000000000
(1573490728.351963) can0 281#181600000400
(1573490728.352191) can0 381#82020A000200
(1573490728.355545) can0 234#1122000000000000
(1573490728.358845) can0 001#FF7303F7001018D0
(1573490728.359089) can0 003#1000000000000000
(1573490728.359329) can0 002#8DD38D4E00000013
(1573490728.359572) can0 201#06000000400D0300
(1573490728.359688) can0 080#00
(1573490728.359914) can0 181#080000000000
(1573490728.360123) can0 281#181600000400
(1573490728.360332) can0 381#83020A000200
(1573490728.361734) can0 036#018D9D00BE8C8A3D
(1573490728.366977) can0 201#06000000400D0300
(1573490728.367149) can0 080#00
(1573490728.367377) can0 181#080000000000
(1573490728.367585) can0 281#181600000400
(1573490728.367810) can0 381#83020A000200
(1573490728.374786) can0 201#06000000400D0300
(1573490728.374964) can0 080#00
(1573490728.375223) can0 181#080000000000
(1573490728.375430) can0 281#181600000400
(1573490728.375638) can0 381#82020A000200
(1573490728.382590) can0 201#06000000400D0300
(1573490728.382765) can0 080#00
(1573490728.382994) can0 181#080000000000
(1573490728.383202) can0 281#181600000400
(1573490728.383410) can0 381#82020A000200
(1573490728.390393) can0 201#06000000400D0300
(1573490728.390566) can0 080#00
(1573490728.390803) can0 181#080000000000
(1573490728.391009) can0 281#181600000400
(1573490728.391217) can0 381#83020A000200
(1573490728.391505) can0 10000002#188D9E03F700BE00
(1573490728.398284) can0 201#06000000400D0300
(1573490728.398440) can0 080#00
(1573490728.398666) can0 181#080000000000
(1573490728.398874) can0 281#181600000400
(1573490728.399081) can0 381#82020A000200
(1573490728.406035) can0 201#06000000400D0300
(1573490728.406202) can0 080#00
(1573490728.406430) can0 181#080000000000
(1573490728.406637) can0 281#181600000400
(1573490728.406850) can0 381#83020A000200
(1573490728.413852) can0 201#06000000400D0300
(1573490728.414021) can0 080#00
(1573490728.414277) can0 181#080000000000
(1573490728.414489) can0 281#181600000400
(1573490728.414695) can0 381#83020A000200
(1573490728.421650) can0 201#06000000400D0300
(1573490728.421821) can0 080#00
(1573490728.422048) can0 181#080000000000
(1573490728.422257) can0 281#181600000400
(1573490728.422464) can0 381#83020A000200
(1573490728.429466) can0 201#06000000400D0300
(1573490728.429636) can0 080#00
(1573490728.429899) can0 181#080000000000
(1573490728.430107) can0 281#181600000400
(1573490728.430315) can0 381#83020A000200
(1573490728.437279) can0 201#06000000400D0300
(1573490728.437443) can0 080#00
(1573490728.437674) can0 181#080000000000
(1573490728.437881) can0 281#181600000400
(1573490728.438096) can0 381#820209000200
(1573490728.445071) can0 201#06000000400D0300
(1573490728.445278) can0 080#00
(1573490728.445481) can0 181#080000000000
(1573490728.445687) can0 281#181600000400
(1573490728.445891) can0 381#82020A000200
(1573490728.452885) can0 201#06000000400D0300
(1573490728.453055) can0 080#00
(1573490728.453282) can0 181#080000000000
(1573490728.453491) can0 281#181600000400
(1573490728.453698) can0 381#82020A000200
(1573490728.456038) can0 234#1122000000000000
(1573490728.460708) can0 201#06000000400D0300
(1573490728.460889) can0 080#00
(1573490728.461148) can0 181#080000000000
(1573490728.461356) can0 281#181600000400
(1573490728.461564) can0 381#83020A000200
(1573490728.461799) can0 036#028DA900BE8C9555
(1573490728.468524) can0 201#06000000400D0300
(1573490728.468699) can0 080#00
(1573490728.468958) can0 181#080000000000
(1573490728.469166) can0 281#181600000400
(1573490728.469374) can0 381#82020A000200
(1573490728.470828) can0 001#FF6E03F7001018D0
(1573490728.471082) can0 003#1000000000000000
(1573490728.471318) can0 002#8DD08D4700000013
(1573490728.476370) can0 201#06000000400D0300
(1573490728.476542) can0 080#00
(1573490728.476777) can0 181#080000000000
(1573490728.476993) can0 281#181600000400
(1573490728.477195) can0 381#83020A000200
(1573490728.484127) can0 201#06000000400D0300
(1573490728.484297) can0 080#00
(1573490728.484527) can0 181#080000000000
(1573490728.484737) can0 281#181600000400
(1573490728.484944) can0 381#82020A000200
(1573490728.491963) can0 201#06000000400D0300
(1573490728.492173) can0 080#00
(1573490728.492386) can0 181#080000000000
(1573490728.492595) can0 281#181600000400
(1573490728.492801) can0 381#830209000200
(1573490728.494814) can0 10000002#188DA003F700BE00
(1573490728.499754) can0 201#06000000400D0300
(1573490728.499930) can0 080#00
(1573490728.500158) can0 181#080000000000
(1573490728.500367) can0 281#181600000400
(1573490728.500574) can0 381#82020A000200
(1573490728.507583) can0 201#06000000400D0300
(1573490728.507754) can0 080#00
(1573490728.508011) can0 181#080000000000
(1573490728.508221) can0 281#181600000400
(1573490728.508429) can0 381#83020A000200
(1573490728.515382) can0 201#06000000400D0300
(1573490728.515554) can0 080#00
(1573490728.515789) can0 181#080000000000
(1573490728.515997) can0 281#181600000400
(1573490728.516204) can0 381#83020A000200
(1573490728.523192) can0 201#06000000400D0300
(1573490728.523358) can0 080#00
(1573490728.523585) can0 181#080000000000
(1573490728.523793) can0 281#181600000400
(1573490728.524002) can0 381#83020A000200
(1573490728.531006) can0 201#06000000400D0300
(1573490728.531178) can0 080#00
(1573490728.531406) can0 181#080000000000
(1573490728.531615) can0 281#181600000400
(1573490728.531823) can0 381#83020A000200
(1573490728.538825) can0 201#06000000400D0300
(1573490728.538985) can0 080#00
(1573490728.539214) can0 181#080000000000
(1573490728.539430) can0 281#181600000400
(1573490728.539632) can0 381#82020A000200
(1573490728.546634) can0 201#06000000400D0300
(1573490728.546805) can0 080#00
(1573490728.547063) can0 181#080000000000
(1573490728.547271) can0 281#181600000400
(1573490728.547489) can0 381#82020A000200
(1573490728.554451) can0 201#06000000400D0300
(1573490728.554614) can0 080#00
(1573490728.554876) can0 181#080000000000
(1573490728.555101) can0 281#181600000400
(1573490728.555291) can0 381#82020A000200
(1573490728.555631) can0 234#1122000000000000
(1573490728.561733) can0 036#038DBE00BE8CA97F
(1573490728.562362) can0 201#06000000400D0300
(1573490728.562534) can0 080#00
(1573490728.562767) can0 181#080000000000
(1573490728.562977) can0 281#181600000400
(1573490728.563199) can0 381#83020A000200
(1573490728.570048) can0 201#06000000400D0300
(1573490728.570221) can0 080#00
(1573490728.570448) can0 181#080000000000
(1573490728.570658) can0 281#181600000400
(1573490728.570865) can0 381#83020A000200
(1573490728.577870) can0 201#06000000400D0300
(1573490728.578039) can0 080#00
(1573490728.578269) can0 181#080000000000
(1573490728.578478) can0 281#181600000400
(1573490728.578693) can0 381#83020A000200
(1573490728.582754) can0 001#FF7103F7001018D0
(1573490728.583008) can0 003#1000000000000000
(1573490728.583249) can0 002#8DCF8D4800000013
(1573490728.585687) can0 201#06000000400D0300
(1573490728.585863) can0 080#00
(1573490728.586121) can0 181#080000000000
(1573490728.586328) can0 281#181600000400
(1573490728.586538) can0 381#82020A000200
(1573490728.593479) can0 201#06000000400D0300
(1573490728.593658) can0 080#00
(1573490728.593887) can0 181#080000000000
(1573490728.594093) can0 281#181600000400
(1573490728.594317) can0 381#82020A000200
(1573490728.598888) can0 10000002#188D9C03F700BE00
(1573490728.601308) can0 201#06000000400D0300
(1573490728.601467) can0 080#00
(1573490728.601696) can0 181#080000000000
(1573490728.601904) can0 281#181600000400
(1573490728.602111) can0 381#82020A000200
(1573490728.609110) can0 201#06000000400D0300
(1573490728.609275) can0 080#00
(1573490728.609503) can0 181#080000000000
(1573490728.609713) can0 281#181600000400
(1573490728.609920) can0 381#83020A000200
(1573490728.616922) can0 201#06000000400D0300
(1573490728.617090) can0 080#00
(1573490728.617320) can0 181#080000000000
(1573490728.617528) can0 281#181600000400
(1573490728.617736) can0 381#83020A000200
(1573490728.624750) can0 201#06000000400D0300
(1573490728.624920) can0 080#00
(1573490728.625183) can0 181#080000000000
(1573490728.625381) can0 281#181600000400
(1573490728.625589) can0 381#82020A000200
(1573490728.632543) can0 201#06000000400D0300
(1573490728.632718) can0 080#00
(1573490728.632947) can0 181#080000000000
(1573490728.633156) can0 281#181600000400
(1573490728.633363) can0 381#83020A000200
(1573490728.640364) can0 201#06000000400D0300
(1573490728.640528) can0 080#00
(1573490728.640763) can0 181#080000000000
(1573490728.640972) can0 281#181600000400
(1573490728.641181) can0 381#82020A000200
(1573490728.648176) can0 201#06000000400D0300
(1573490728.648346) can0 080#00
(1573490728.648573) can0 181#080000000000
(1573490728.648781) can0 281#181600000400
(1573490728.649000) can0 381#82020A000200
(1573490728.655958) can0 234#1122000000000000
(1573490728.656218) can0 201#06000000400D0300
(1573490728.656345) can0 080#00
(1573490728.656558) can0 181#080000000000
(1573490728.656766) can0 281#181600000400
(1573490728.656974) can0 381#83020A000200
(1573490728.661722) can0 036#048DA600BE8C9251
(1573490728.663908) can0 201#06000000400D0300
(1573490728.664080) can0 080#00
(1573490728.664308) can0 181#080000000000
(1573490728.664516) can0 281#181600000400
(1573490728.664724) can0 381#82020A000200
(1573490728.671595) can0 201#06000000400D0300
(1573490728.671770) can0 080#00
(1573490728.672000) can0 181#080000000000
(1573490728.672209) can0 281#181600000400
(1573490728.672414) can0 381#830209000200
(1573490728.679405) can0 201#06000000400D0300
(1573490728.679577) can0 080#00
(1573490728.679811) can0 181#080000000000
(1573490728.680020) can0 281#181600000400
(1573490728.680228) can0 381#82020A000200
(1573490728.687223) can0 201#06000000400D0300
(1573490728.687394) can0 080#00
(1573490728.687624) can0 181#080000000000
(1573490728.687832) can0 281#181600000400
(1573490728.688039) can0 381#82020A000200
(1573490728.694818) can0 001#FF6F03F7001018D0
(1573490728.695083) can0 003#1000000000000000
(1573490728.695313) can0 002#8DD18D4900000013
(1573490728.695564) can0 201#06000000400D0300
(1573490728.695675) can0 080#00
(1573490728.695888) can0 181#080000000000
(1573490728.696097) can0 281#181600000400
(1573490728.696303) can0 381#83020A000200
(1573490728.702804) can0 10000002#188DA103F700BE00
(1573490728.703054) can0 201#06000000400D0300
(1573490728.703213) can0 080#00
(1573490728.703426) can0 181#080000000000
(1573490728.703634) can0 281#181600000400
(1573490728.703843) can0 381#82020A000200
(1573490728.710673) can0 201#06000000400D0300
(1573490728.710844) can0 080#00
(1573490728.711104) can0 181#080000000000
(1573490728.711308) can0 281#181600000400
(1573490728.711516) can0 381#830209000200
(1573490728.718474) can0 201#06000000400D0300
(1573490728.718642) can0 080#00
(1573490728.718875) can0 181#080000000000
(1573490728.719084) can0 281#181600000400
(1573490728.719291) can0 381#83020A000200
(1573490728.726285) can0 201#06000000400D0300
(1573490728.726453) can0 080#00
(1573490728.726680) can0 181#080000000000
(1573490728.726888) can0 281#181600000400
(1573490728.727096) can0 381#82020A000200
(1573490728.734085) can0 201#06000000400D0300
(1573490728.734252) can0 080#00
(1573490728.734479) can0 181#080000000000
(1573490728.734687) can0 281#181600000400
(1573490728.734895) can0 381#83020A000200
(1573490728.741899) can0 201#06000000400D0300
(1573490728.742067) can0 080#00
(1573490728.742295) can0 181#080000000000
(1573490728.742504) can0 281#181600000400
(1573490728.742712) can0 381#82020A000200
(1573490728.749722) can0 201#06000000400D0300
(1573490728.749893) can0 080#00
(1573490728.750152) can0 181#080000000000
(1573490728.750360) can0 281#181600000400
(1573490728.750568) can0 381#82020A000200
(1573490728.756095) can0 234#1122000000000000
(1573490728.757594) can0 201#06000000400D0300
(1573490728.757767) can0 080#00
(1573490728.758025) can0 181#080000000000
(1573490728.758233) can0 281#181600000400
(1573490728.758442) can0 381#82020A000200
(1573490728.761729) can0 036#058D9000BE8C7A24
(1573490728.765332) can0 201#06000000400D0300
(1573490728.765504) can0 080#00
(1573490728.765733) can0 181#080000000000
(1573490728.765942) can0 281#181600000400
(1573490728.766151) can0 381#83020A000200
(1573490728.773148) can0 201#06000000400D0300
(1573490728.773321) can0 080#00
(1573490728.773548) can0 181#080000000000
(1573490728.773757) can0 281#181600000400
(1573490728.773965) can0 381#82020A000200
(1573490728.780957) can0 201#06000000400D0300
(1573490728.781129) can0 080#00
(1573490728.781357) can0 181#080000000000
(1573490728.781566) can0 281#181600000400
(1573490728.781774) can0 381#83020A000200
(1573490728.788777) can0 201#06000000400D0300
(1573490728.788948) can0 080#00
(1573490728.789203) can0 181#080000000000
(1573490728.789413) can0 281#181600000400
(1573490728.789618) can0 381#820209000200
(1573490728.796578) can0 201#06000000400D0300
(1573490728.796758) can0 080#00
(1573490728.797015) can0 181#080000000000
(1573490728.797222) can0 281#181600000400
(1573490728.797446) can0 381#83020A000200
(1573490728.804391) can0 201#06000000400D0300
(1573490728.804563) can0 080#00
(1573490728.804828) can0 181#080000000000
(1573490728.805067) can0 281#181600000400
(1573490728.805241) can0 381#830209000200
(1573490728.806746) can0 001#FF6F03F7001018D0
(1573490728.806998) can0 003#1000000000000000
(1573490728.807233) can0 002#8DCC8D4400000013
(1573490728.807519) can0 10000002#188D9C03F700BE00
(1573490728.812200) can0 201#06000000400D0300
(1573490728.812363) can0 080#00
(1573490728.812592) can0 181#080000000000
(1573490728.812803) can0 281#181600000400
(1573490728.813010) can0 381#83020A000200
(1573490728.820012) can0 201#06000000400D0300
(1573490728.820186) can0 080#00
(1573490728.820404) can0 181#080000000000
(1573490728.820612) can0 281#181600000400
(1573490728.820819) can0 381#83020A000200
(1573490728.827824) can0 201#06000000400D0300
(1573490728.827993) can0 080#00
(1573490728.828221) can0 181#080000000000
(1573490728.828430) can0 281#181600000400
(1573490728.828638) can0 381#82020A000200
(1573490728.835648) can0 201#06000000400D0300
(1573490728.835812) can0 080#00
(1573490728.836036) can0 181#080000000000
(1573490728.836243) can0 281#181600000400
(1573490728.836451) can0 381#83020A000200
(1573490728.843442) can0 201#06000000400D0300
(1573490728.843616) can0 080#00
(1573490728.843881) can0 181#080000000000
(1573490728.844090) can0 281#181600000400
(1573490728.844298) can0 381#83020A000200
(1573490728.851265) can0 201#06000000400D0300
(1573490728.851430) can0 080#00
(1573490728.851658) can0 181#080000000000
(1573490728.851866) can0 281#181600000400
(1573490728.852074) can0 381#83020A000200
(1573490728.855734) can0 234#1122000000000000
(1573490728.859057) can0 201#06000000400D0300
(1573490728.859226) can0 080#00
(1573490728.859454) can0 181#080000000000
(1573490728.859663) can0 281#181600000400
(1573490728.859872) can0 381#82020A000200
(1573490728.861722) can0 036#068DBF00BE8CA781
(1573490728.866869) can0 201#06000000400D0300
(1573490728.867041) can0 080#00
(1573490728.867269) can0 181#080000000000
(1573490728.867477) can0 281#181600000400
(1573490728.867686) can0 381#83020A000200
(1573490728.874680) can0 201#06000000400D0300
(1573490728.874855) can0 080#00
(1573490728.875136) can0 181#080000000000
(1573490728.875295) can0 281#181600000400
(1573490728.875502) can0 381#83020A000200
(1573490728.882492) can0 201#06000000400D0300
(1573490728.882667) can0 080#00
(1573490728.882897) can0 181#080000000000
(1573490728.883105) can0 281#181600000400
(1573490728.883313) can0 381#83020A000200
(1573490728.890305) can0 201#06000000400D0300
(1573490728.890470) can0 080#00
(1573490728.890700) can0 181#080000000000
(1573490728.890908) can0 281#181600000400
(1573490728.891116) can0 381#82020A000200
(1573490728.898129) can0 201#06000000400D0300
(1573490728.898297) can0 080#00
(1573490728.898524) can0 181#080000000000
(1573490728.898732) can0 281#181600000400
(1573490728.898940) can0 381#82020A000200
(1573490728.905936) can0 201#06000000400D0300
(1573490728.906103) can0 080#00
(1573490728.906333) can0 181#080000000000
(1573490728.906541) can0 281#181600000400
(1573490728.906749) can0 381#83020A000200
(1573490728.910796) can0 10000002#188DA103F700BE00
(1573490728.913757) can0 201#06000000400D0300
(1573490728.913925) can0 080#00
(1573490728.914182) can0 181#080000000000
(1573490728.914391) can0 281#181600000400
(1573490728.914598) can0 381#82020A000200
(1573490728.918752) can0 001#FF7003F7001018D0
(1573490728.919001) can0 003#1000000000000000
(1573490728.919237) can0 002#8DD08D4C00000013
(1573490728.921614) can0 201#06000000400D0300
(1573490728.921787) can0 080#00
(1573490728.922024) can0 181#080000000000
(1573490728.922224) can0 281#181600000400
(1573490728.922434) can0 381#83020A000200
(1573490728.929376) can0 201#06000000400D0300
(1573490728.929542) can0 080#00
(1573490728.929805) can0 181#080000000000
(1573490728.930013) can0 281#181600000400
(1573490728.930221) can0 381#82020A000200
(1573490728.937187) can0 201#06000000400D0300
(1573490728.937355) can0 080#00
(1573490728.937577) can0 181#080000000000
(1573490728.937784) can0 281#181600000400
(1573490728.937993) can0 381#82020A000200
(1573490728.945005) can0 201#06000000400D0300
(1573490728.945161) can0 080#00
(1573490728.945388) can0 181#080000000000
(1573490728.945604) can0 281#181600000400
(1573490728.945809) can0 381#83020A000200
(1573490728.952817) can0 201#06000000400D0300
(1573490728.952979) can0 080#00
(1573490728.953235) can0 181#080000000000
(1573490728.953446) can0 281#181600000400
(1573490728.953652) can0 381#83020A000200
(1573490728.956160) can0 234#1122000000000000
(1573490728.960605) can0 201#06000000400D0300
(1573490728.960783) can0 080#00
(1573490728.961014) can0 181#080000000000
(1573490728.961222) can0 281#181600000400
(1573490728.961431) can0 381#83020A000200
(1573490728.961718) can0 036#078DA500BE8C9253
(1573490728.968461) can0 201#06000000400D0300
(1573490728.968614) can0 080#00
(1573490728.968868) can0 181#080000000000
(1573490728.969077) can0 281#181600000400
(1573490728.969286) can0 381#82020A000200
(1573490728.976222) can0 201#06000000400D0300
(1573490728.976392) can0 080#00
(1573490728.976621) can0 181#080000000000
(1573490728.976830) can0 281#181600000400
(1573490728.977038) can0 381#83020A000200
(1573490728.984031) can0 201#06000000400D0300
(1573490728.984202) can0 080#00
(1573490728.984430) can0 181#080000000000
(1573490728.984638) can0 281#181600000400
(1573490728.984862) can0 381#83020A000200
(1573490728.991849) can0 201#06000000400D0300
(1573490728.992019) can0 080#00
(1573490728.992247) can0 181#080000000000
(1573490728.992456) can0 281#181600000400
(1573490728.992663) can0 381#82020A000200
(1573490728.999663) can0 201#06000000400D0300
(1573490728.999831) can0 080#00
(1573490729.000063) can0 181#080000000000
(1573490729.000270) can0 281#181600000400
(1573490729.000474) can0 381#83020A000200
(1573490729.007467) can0 201#06000000400D0300
(1573490729.007639) can0 080#00
(1573490729.007866) can0 181#080000000000
(1573490729.008074) can0 281#181600000400
(1573490729.008282) can0 381#82020A000200
(1573490729.014871) can0 10000002#188D9D03F700BE00
(1573490729.015347) can0 201#06000000400D0300
(1573490729.015516) can0 080#00
(1573490729.015753) can0 181#080000000000
(1573490729.015959) can0 281#181600000400
(1573490729.016168) can0 381#82020A000200
(1573490729.023101) can0 201#06000000400D0300
(1573490729.023274) can0 080#00
(1573490729.023492) can0 181#080000000000
(1573490729.023701) can0 281#181600000400
(1573490729.023916) can0 381#83020A000200
(1573490729.030814) can0 001#FF6E03F7001018D0
(1573490729.031064) can0 003#1000000000000000
(1573490729.031297) can0 002#8DCC8D4300000013
(1573490729.031544) can0 201#06000000400D0300
(1573490729.031658) can0 080#00
(1573490729.031875) can0 181#080000000000
(1573490729.032083) can0 281#181600000400
(1573490729.032288) can0 381#83020A000200
(1573490729.038719) can0 201#06000000400D0300
(1573490729.038891) can0 080#00
(1573490729.039121) can0 181#080000000000
(1573490729.039329) can0 281#181600000400
(1573490729.039537) can0 381#83020A000200
(1573490729.046549) can0 201#06000000400D0300
(1573490729.046712) can0 080#00
(1573490729.046966) can0 181#080000000000
(1573490729.047174) can0 281#181600000400
(1573490729.047382) can0 381#83020A000200
(1573490729.054353) can0 201#06000000400D0300
(1573490729.054518) can0 080#00
(1573490729.054779) can0 181#080000000000
(1573490729.054987) can0 281#181600000400
(1573490729.055195) can0 381#83020A000200
(1573490729.055681) can0 234#1122000000000000
(1573490729.061710) can0 036#0C8D9C00BE8C8845
(1573490729.062255) can0 201#06000000400D0300
(1573490729.062399) can0 080#00
(1573490729.062657) can0 181#080000000000
(1573490729.062866) can0 281#181600000400
(1573490729.063075) can0 381#83020A000200
(1573490729.069965) can0 201#06000000400D0300
(1573490729.070137) can0 080#00
(1573490729.070363) can0 181#080000000000
(1573490729.070574) can0 281#181600000400
(1573490729.070788) can0 381#82020A000200
(1573490729.077772) can0 201#06000000400D0300
(1573490729.077944) can0 080#00
(1573490729.078171) can0 181#080000000000
(1573490729.078379) can0 281#181600000400
(1573490729.078602) can0 381#83020A000200
(1573490729.085591) can0 201#06000000400D0300
(1573490729.085758) can0 080#00
(1573490729.085987) can0 181#080000000000
(1573490729.086195) can0 281#181600000400
(1573490729.086402) can0 381#82020A000200
(1573490729.093396) can0 201#06000000400D0300
(1573490729.093568) can0 080#00
(1573490729.093830) can0 181#080000000000
(1573490729.094039) can0 281#181600000400
(1573490729.094247) can0 381#83020A000200
(1573490729.101199) can0 201#06000000400D0300
(1573490729.101371) can0 080#00
(1573490729.101599) can0 181#080000000000
(1573490729.101807) can0 281#181600000400
(1573490729.102016) can0 381#83020A000200
(1573490729.109007) can0 201#06000000400D0300
(1573490729.109180) can0 080#00
(1573490729.109408) can0 181#080000000000
(1573490729.109616) can0 281#181600000400
(1573490729.109823) can0 381#83020A000200
(1573490729.116822) can0 201#06000000400D0300
(1573490729.116994) can0 080#00
(1573490729.117224) can0 181#080000000000
(1573490729.117431) can0 281#181600000400
(1573490729.117638) can0 381#82020A000200
(1573490729.118785) can0 10000002#188DA103F700BE00
(1573490729.124691) can0 201#06000000400D0300
(1573490729.124866) can0 080#00
(1573490729.125101) can0 181#080000000000
(1573490729.125302) can0 281#181600000400
(1573490729.125510) can0 381#82020A000200
(1573490729.132450) can0 201#06000000400D0300
(1573490729.132622) can0 080#00
(1573490729.132853) can0 181#080000000000
(1573490729.133061) can0 281#181600000400
(1573490729.133268) can0 381#83020A000200
(1573490729.140252) can0 201#06000000400D0300
(1573490729.140425) can0 080#00
(1573490729.140653) can0 181#080000000000
(1573490729.140863) can0 281#181600000400
(1573490729.141069) can0 381#82020A000200
(1573490729.142809) can0 001#FF7303F7001018D0
(1573490729.143088) can0 003#1000000000000000
(1573490729.143308) can0 002#8DD48D4C00000013
(1573490729.148076) can0 201#06000000400D0300
(1573490729.148248) can0 080#00
(1573490729.148478) can0 181#080000000000
(1573490729.148686) can0 281#181600000400
(1573490729.148894) can0 381#83020A000200
(1573490729.155878) can0 201#06000000400D0300
(1573490729.156047) can0 080#00
(1573490729.156276) can0 181#080000000000
(1573490729.156508) can0 234#1122000000000000
(1573490729.156732) can0 281#181600000400
(1573490729.156938) can0 381#83020A000200
(1573490729.161734) can0 036#0D8DAF00BE8C9C6D
(1573490729.163826) can0 201#06000000400D0300
(1573490729.164005) can0 080#00
(1573490729.164255) can0 181#080000000000
(1573490729.164463) can0 281#181600000400
(1573490729.164670) can0 381#83020A000200
(1573490729.171502) can0 201#06000000400D0300
(1573490729.171677) can0 080#00
(1573490729.171917) can0 181#080000000000
(1573490729.172116) can0 281#181600000400
(1573490729.172326) can0 381#82020A000200
(1573490729.179308) can0 201#06000000400D0300
(1573490729.179498) can0 080#00
(1573490729.179716) can0 181#080000000000
(1573490729.179925) can0 281#181600000400
(1573490729.180132) can0 381#83020A000200
(1573490729.187127) can0 201#06000000400D0300
(1573490729.187301) can0 080#00
(1573490729.187528) can0 181#080000000000
(1573490729.187736) can0 281#181600000400
(1573490729.187945) can0 381#83020A000200
(1573490729.194928) can0 201#06000000400D0300
(1573490729.195120) can0 080#00
(1573490729.195331) can0 181#080000000000
(1573490729.195537) can0 281#181600000400
(1573490729.195746) can0 381#83020A000200
(1573490729.202759) can0 201#06000000400D0300
(1573490729.202930) can0 080#00
(1573490729.203188) can0 181#080000000000
(1573490729.203396) can0 281#181600000400
(1573490729.203606) can0 381#82020A000200
(1573490729.210568) can0 201#06000000400D0300
(1573490729.210744) can0 080#00
(1573490729.211004) can0 181#080000000000
(1573490729.211219) can0 281#181600000400
(1573490729.211422) can0 381#82020A000200
(1573490729.218360) can0 201#06000000400D0300
(1573490729.218533) can0 080#00
(1573490729.218767) can0 181#080000000000
(1573490729.218976) can0 281#181600000400
(1573490729.219186) can0 381#82020A000200
(1573490729.222850) can0 10000002#188D9C03F700BE00
(1573490729.226175) can0 201#06000000400D0300
(1573490729.226366) can0 080#00
(1573490729.226576) can0 181#080000000000
(1573490729.226783) can0 281#181600000400
(1573490729.226990) can0 381#83020A000200
(1573490729.233985) can0 201#06000000400D0300
(1573490729.234153) can0 080#00
(1573490729.234388) can0 181#080000000000
(1573490729.234594) can0 281#181600000400
(1573490729.234803) can0 381#82020A000200
(1573490729.241803) can0 201#06000000400D0300
(1573490729.241984) can0 080#00
(1573490729.242202) can0 181#080000000000
(1573490729.242410) can0 281#181600000400
(1573490729.242617) can0 381#83020A000200
(1573490729.249610) can0 201#06000000400D0300
(1573490729.249788) can0 080#00
(1573490729.250015) can0 181#080000000000
(1573490729.250224) can0 281#181600000400
(1573490729.250431) can0 381#83020A000200
(1573490729.254793) can0 001#FF6E03F7001018D0
(1573490729.255092) can0 003#1000000000000000
(1573490729.255288) can0 002#8DD08D4600000013
(1573490729.256107) can0 234#1122000000000000
(1573490729.257603) can0 201#06000000400D0300
(1573490729.257793) can0 080#00
(1573490729.257998) can0 181#080000000000
(1573490729.258206) can0 281#181600000400
(1573490729.258414) can0 381#83020A000200
(1573490729.261707) can0 036#0E8D9C00BE8C8A49
(1573490729.265225) can0 201#06000000400D0300
(1573490729.265397) can0 080#00
(1573490729.265625) can0 181#080000000000
(1573490729.265833) can0 281#181600000400
(1573490729.266044) can0 381#83020A000200
(1573490729.273053) can0 201#06000000400D0300
(1573490729.273221) can0 080#00
(1573490729.273455) can0 181#080000000000
(1573490729.273662) can0 281#181600000400
(1573490729.273871) can0 381#83020A000200
(1573490729.280850) can0 201#06000000400D0300
(1573490729.281023) can0 080#00
(1573490729.281252) can0 181#080000000000
(1573490729.281460) can0 281#181600000400
(1573490729.281669) can0 381#82020A000200
(1573490729.288664) can0 201#06000000400D0300
(1573490729.288841) can0 080#00
(1573490729.289070) can0 181#080000000000
(1573490729.289278) can0 281#181600000400
(1573490729.289486) can0 381#82020A000200
(1573490729.296470) can0 201#06000000400D0300
(1573490729.296649) can0 080#00
(1573490729.296877) can0 181#080000000000
(1573490729.297084) can0 281#181600000400
(1573490729.297294) can0 381#82020A000200
(1573490729.304297) can0 201#06000000400D0300
(1573490729.304467) can0 080#00
(1573490729.304732) can0 181#080000000000
(1573490729.304939) can0 281#181600000400
(1573490729.305147) can0 381#82020A000200
(1573490729.312094) can0 201#06000000400D0300
(1573490729.312266) can0 080#00
(1573490729.312496) can0 181#080000000000
(1573490729.312705) can0 281#181600000400
(1573490729.312914) can0 381#82020A000200
(1573490729.319908) can0 201#06000000400D0300
(1573490729.320076) can0 080#00
(1573490729.320314) can0 181#080000000000
(1573490729.320516) can0 281#181600000400
(1573490729.320724) can0 381#82020A000200
(1573490729.326864) can0 10000002#188DA203F700BE00
(1573490729.327848) can0 201#06000000400D0300
(1573490729.328011) can0 080#00
(1573490729.328241) can0 181#080000000000
(1573490729.328448) can0 281#181600000400
(1573490729.328658) can0 381#83020A000200
(1573490729.335554) can0 201#06000000400D0300
(1573490729.335723) can0 080#00
(1573490729.335980) can0 181#080000000000
(1573490729.336189) can0 281#181600000400
(1573490729.336396) can0 381#82020A000200
(1573490729.343346) can0 201#06000000400D0300
(1573490729.343513) can0 080#00
(1573490729.343747) can0 181#080000000000
(1573490729.343955) can0 281#181600000400
(1573490729.344163) can0 381#82020A000200
(1573490729.351171) can0 201#06000000400D0300
(1573490729.351324) can0 080#00
(1573490729.351552) can0 181#080000000000
(1573490729.351761) can0 281#181600000400
(1573490729.351970) can0 381#83020A000200
(1573490729.355755) can0 234#1122000000000000
(1573490729.359027) can0 201#06000000400D0300
(1573490729.359196) can0 080#00
(1573490729.359427) can0 181#080000000000
(1573490729.359635) can0 281#181600000400
(1573490729.359843) can0 381#83020A000200
(1573490729.361710) can0 036#0F8DD000BE8CBCB0
(1573490729.366741) can0 001#FF7203F7001018D0
(1573490729.366973) can0 003#1000000000000000
(1573490729.367209) can0 002#8DD08D4900000013
(1573490729.367454) can0 201#06000000400D0300
(1573490729.367572) can0 080#00
(1573490729.367783) can0 181#080000000000
(1573490729.367993) can0 281#181600000400
(1573490729.368200) can0 381#82020A000200
(1573490729.374605) can0 201#06000000400D0300
(1573490729.374772) can0 080#00
(1573490729.375053) can0 181#080000000000
(1573490729.375237) can0 281#181600000400
(1573490729.375447) can0 381#82020A000200
(1573490729.382405) can0 201#06000000400D0300
(1573490729.382579) can0 080#00
(1573490729.382840) can0 181#080000000000
(1573490729.383049) can0 281#181600000400
(1573490729.383257) can0 381#82020A000200
(1573490729.390214) can0 201#06000000400D0300
(1573490729.390376) can0 080#00
(1573490729.390603) can0 181#080000000000
(1573490729.390811) can0 281#181600000400
(1573490729.391019) can0 381#82020A000200
(1573490729.398015) can0 201#06000000400D0300
(1573490729.398190) can0 080#00
(1573490729.398418) can0 181#080000000000
(1573490729.398626) can0 281#181600000400
(1573490729.398833) can0 381#83020A000200
(1573490729.405845) can0 201#06000000400D0300
(1573490729.406009) can0 080#00
(1573490729.406236) can0 181#080000000000
(1573490729.406445) can0 281#181600000400
(1573490729.406653) can0 381#83020A000200
(1573490729.413641) can0 201#06000000400D0300
(1573490729.413817) can0 080#00
(1573490729.414047) can0 181#080000000000
(1573490729.414256) can0 281#181600000400
(1573490729.414464) can0 381#83020A000200
(1573490729.421450) can0 201#06000000400D0300
(1573490729.421626) can0 080#00
(1573490729.421854) can0 181#080000000000
(1573490729.422063) can0 281#181600000400
(1573490729.422276) can0 381#82020A000200
(1573490729.429266) can0 201#06000000400D0300
(1573490729.429433) can0 080#00
(1573490729.429663) can0 181#080000000000
(1573490729.429870) can0 281#181600000400
(1573490729.430080) can0 381#82020A000200
(1573490729.430772) can0 10000002#188D9C03F700BE00
(1573490729.437101) can0 201#06000000400D0300
(1573490729.437259) can0 080#00
(1573490729.437486) can0 181#080000000000
(1573490729.437709) can0 281#181600000400
(1573490729.437905) can0 381#83020A000200
(1573490729.444891) can0 201#06000000400D0300
(1573490729.445084) can0 080#00
(1573490729.445285) can0 181#080000000000
(1573490729.445492) can0 281#181600000400
(1573490729.445701) can0 381#83020A000200
(1573490729.452707) can0 201#06000000400D0300
(1573490729.452874) can0 080#00
(1573490729.453102) can0 181#080000000000
(1573490729.453311) can0 281#181600000400
(1573490729.453520) can0 381#82020A000200
(1573490729.456134) can0 234#1122000000000000
(1573490729.460515) can0 201#06000000400D0300
(1573490729.460688) can0 080#00
(1573490729.460917) can0 181#080000000000
(1573490729.461126) can0 281#181600000400
(1573490729.461332) can0 381#83020A000200
(1573490729.461713) can0 036#108D9F00BE8C8B4F
(1573490729.468373) can0 201#06000000400D0300
(1573490729.468514) can0 080#00
(1573490729.468775) can0 181#080000000000
(1573490729.468993) can0 281#181600000400
(1573490729.469190) can0 381#83020A000200
(1573490729.476126) can0 201#06000000400D0300
(1573490729.476299) can0 080#00
(1573490729.476527) can0 181#080000000000
(1573490729.476736) can0 281#181600000400
(1573490729.476944) can0 381#82020A000200
(1573490729.478717) can0 001#FF6F03F7001018D0
(1573490729.478970) can0 003#1000000000000000
(1573490729.479206) can0 002#8DD08D4900000013
(1573490729.483934) can0 201#06000000400D0300
(1573490729.484116) can0 080#00
(1573490729.484336) can0 181#080000000000
(1573490729.484544) can0 281#181600000400
(1573490729.484753) can0 381#82020A000200
(1573490729.491766) can0 201#06000000400D0300
(1573490729.491937) can0 080#00
(1573490729.492192) can0 181#080000000000
(1573490729.492401) can0 281#181600000400
(1573490729.492611) can0 381#83020A000200
(1573490729.499574) can0 201#06000000400D0300
(1573490729.499748) can0 080#00
(1573490729.500006) can0 181#080000000000
(1573490729.500215) can0 281#181600000400
(1573490729.500420) can0 381#83020A000200
(1573490729.507378) can0 201#06000000400D0300
(1573490729.507542) can0 080#00
(1573490729.507776) can0 181#080000000000
(1573490729.507984) can0 281#181600000400
(1573490729.508192) can0 381#82020A000200
(1573490729.515185) can0 201#06000000400D0300
(1573490729.515351) can0 080#00
(1573490729.515581) can0 181#080000000000
(1573490729.515789) can0 281#181600000400
(1573490729.516005) can0 381#82020A000200
(1573490729.523003) can0 201#06000000400D0300
(1573490729.523178) can0 080#00
(1573490729.523406) can0 181#080000000000
(1573490729.523613) can0 281#181600000400
(1573490729.523822) can0 381#83020A000200
(1573490729.530822) can0 201#06000000400D0300
(1573490729.530986) can0 080#00
(1573490729.531216) can0 181#080000000000
(1573490729.531444) can0 281#181600000400
(1573490729.531630) can0 381#82020A000200
(1573490729.534769) can0 10000002#188DA303F700BE00
(1573490729.538627) can0 201#06000000400D0300
(1573490729.538805) can0 080#00
(1573490729.539023) can0 181#080000000000
(1573490729.539232) can0 281#181600000400
(1573490729.539441) can0 381#82020A000200
(1573490729.546426) can0 201#06000000400D0300
(1573490729.546601) can0 080#00
(1573490729.546831) can0 181#080000000000
(1573490729.547039) can0 281#181600000400
(1573490729.547251) can0 381#83020A000200
(1573490729.554247) can0 201#06000000400D0300
(1573490729.554415) can0 080#00
(1573490729.554641) can0 181#080000000000
(1573490729.554851) can0 281#181600000400
(1573490729.555096) can0 381#83020A000200
(1573490729.555619) can0 234#1122000000000000
(1573490729.561707) can0 036#118DA000BE8C8E54
(1573490729.562133) can0 201#06000000400D0300
(1573490729.562303) can0 080#00
(1573490729.562561) can0 181#080000000000
(1573490729.562771) can0 281#181600000400
(1573490729.562978) can0 381#83020A000200
(1573490729.569874) can0 201#06000000400D0300
(1573490729.570040) can0 080#00
(1573490729.570270) can0 181#080000000000
(1573490729.570479) can0 281#181600000400
(1573490729.570687) can0 381#83020A000200
(1573490729.577681) can0 201#06000000400D0300
(1573490729.577859) can0 080#00
(1573490729.578117) can0 181#080000000000
(1573490729.578325) can0 281#181600000400
(1573490729.578533) can0 381#83020A000200
(1573490729.585490) can0 201#06000000400D0300
(1573490729.585662) can0 080#00
(1573490729.585891) can0 181#080000000000
(1573490729.586099) can0 281#181600000400
(1573490729.586311) can0 381#82020A000200
(1573490729.590712) can0 001#FF7003F7001018D0
(1573490729.590966) can0 003#1000000000000000
(1573490729.591202) can0 002#8DCD8D4500000013
(1573490729.593422) can0 201#06000000400D0300
(1573490729.593598) can0 080#00
(1573490729.593828) can0 181#080000000000
(1573490729.594036) can0 281#181600000400
(1573490729.594259) can0 381#83020A000200
(1573490729.601113) can0 201#06000000400D0300
(1573490729.601275) can0 080#00
(1573490729.601504) can0 181#080000000000
(1573490729.601711) can0 281#181600000400
(1573490729.601920) can0 381#82020A000200
(1573490729.608925) can0 201#06000000400D0300
(1573490729.609094) can0 080#00
(1573490729.609347) can0 181#080000000000
(1573490729.609534) can0 281#181600000400
(1573490729.609740) can0 381#82020A000200
(1573490729.616746) can0 201#06000000400D0300
(1573490729.616917) can0 080#00
(1573490729.617175) can0 181#080000000000
(1573490729.617383) can0 281#181600000400
(1573490729.617590) can0 381#83020A000200
(1573490729.624548) can0 201#06000000400D0300
(1573490729.624726) can0 080#00
(1573490729.624983) can0 181#080000000000
(1573490729.625191) can0 281#181600000400
(1573490729.625400) can0 381#82020A000200
(1573490729.632350) can0 201#06000000400D0300
(1573490729.632520) can0 080#00
(1573490729.632754) can0 181#080000000000
(1573490729.632962) can0 281#181600000400
(1573490729.633171) can0 381#82020A000200
(1573490729.638768) can0 10000002#188D9D03F700BE00
(1573490729.640234) can0 201#06000000400D0300
(1573490729.640419) can0 080#00
(1573490729.640658) can0 181#080000000000
(1573490729.640842) can0 281#181600000400
(1573490729.641050) can0 381#83020A000200
(1573490729.647981) can0 201#06000000400D0300
(1573490729.648146) can0 080#00
(1573490729.648373) can0 181#080000000000
(1573490729.648581) can0 281#181600000400
(1573490729.648789) can0 381#83020A000200
(1573490729.655795) can0 201#06000000400D0300
(1573490729.655961) can0 080#00
(1573490729.656197) can0 234#1122000000000000
(1573490729.656423) can0 181#080000000000
(1573490729.656630) can0 281#181600000400
(1573490729.656837) can0 381#82020A000200
(1573490729.661702) can0 036#248DB000BE8C9E87
(1573490729.663685) can0 201#06000000400D0300
(1573490729.663848) can0 080#00
(1573490729.664116) can0 181#080000000000
(1573490729.664321) can0 281#181600000400
(1573490729.664519) can0 381#82020A000200
(1573490729.671399) can0 201#06000000400D0300
(1573490729.671573) can0 080#00
(1573490729.671810) can0 181#080000000000
(1573490729.672027) can0 281#181600000400
(1573490729.672225) can0 381#83020A000200
(1573490729.679211) can0 201#06000000400D0300
(1573490729.679387) can0 080#00
(1573490729.679614) can0 181#080000000000
(1573490729.679824) can0 281#181600000400
(1573490729.680030) can0 381#83020A000200
(1573490729.687023) can0 201#06000000400D0300
(1573490729.687193) can0 080#00
(1573490729.687424) can0 181#080000000000
(1573490729.687631) can0 281#181600000400
(1573490729.687839) can0 381#83020A000200
(1573490729.694833) can0 201#06000000400D0300
(1573490729.695009) can0 080#00
(1573490729.695236) can0 181#080000000000
(1573490729.695445) can0 281#181600000400
(1573490729.695652) can0 381#82020A000200
(1573490729.702659) can0 201#06000000400D0300
(1573490729.702912) can0 003#1000000000000000
(1573490729.703148) can0 002#8DD08D4A00000013
(1573490729.703388) can0 001#FF6F03F7001018D0
(1573490729.703504) can0 080#00
(1573490729.703717) can0 181#080000000000
(1573490729.703924) can0 281#181600000400
(1573490729.704147) can0 381#82020A000200
(1573490729.710523) can0 201#06000000400D0300
(1573490729.710702) can0 080#00
(1573490729.710931) can0 181#080000000000
(1573490729.711140) can0 281#181600000400
(1573490729.711347) can0 381#83020A000200
(1573490729.718266) can0 201#06000000400D0300
(1573490729.718438) can0 080#00
(1573490729.718668) can0 181#080000000000
(1573490729.718876) can0 281#181600000400
(1573490729.719108) can0 381#83020A000200
(1573490729.726076) can0 201#06000000400D0300
(1573490729.726251) can0 080#00
(1573490729.726479) can0 181#080000000000
(1573490729.726687) can0 281#181600000400
(1573490729.726894) can0 381#83020A000200
(1573490729.733888) can0 201#06000000400D0300
(1573490729.734060) can0 080#00
(1573490729.734287) can0 181#080000000000
(1573490729.734495) can0 281#181600000400
(1573490729.734721) can0 381#83020A000200
(1573490729.741719) can0 201#06000000400D0300
(1573490729.741884) can0 080#00
(1573490729.742112) can0 181#080000000000
(1573490729.742320) can0 281#181600000400
(1573490729.742544) can0 381#83020A000200
(1573490729.742817) can0 10000002#188DA303F700BE00
(1573490729.749530) can0 201#06000000400D0300
(1573490729.749703) can0 080#00
(1573490729.749966) can0 181#080000000000
(1573490729.750172) can0 281#181600000400
(1573490729.750381) can0 381#83020A000200
(1573490729.755712) can0 234#1122000000000000
(1573490729.757447) can0 201#06000000400D0300
(1573490729.757618) can0 080#00
(1573490729.757846) can0 181#080000000000
(1573490729.758054) can0 281#181600000400
(1573490729.758261) can0 381#83020A000200
(1573490729.761715) can0 036#258DA600BE8C9272
(1573490729.765131) can0 201#06000000400D0300
(1573490729.765307) can0 080#00
(1573490729.765535) can0 181#080000000000
(1573490729.765742) can0 281#181600000400
(1573490729.765951) can0 381#83020A000200
(1573490729.772960) can0 201#06000000400D0300
(1573490729.773123) can0 080#00
(1573490729.773348) can0 181#080000000000
(1573490729.773555) can0 281#181600000400
(1573490729.773764) can0 381#83020A000200
(1573490729.780769) can0 201#06000000400D0300
(1573490729.780940) can0 080#00
(1573490729.781170) can0 181#080000000000
(1573490729.781376) can0 281#181600000400
(1573490729.781585) can0 381#83020A000200
(1573490729.788568) can0 201#06000000400D0300
(1573490729.788746) can0 080#00
(1573490729.788976) can0 181#080000000000
(1573490729.789184) can0 281#181600000400
(1573490729.789392) can0 381#83020A000200
(1573490729.796395) can0 201#06000000400D0300
(1573490729.796559) can0 080#00
(1573490729.796793) can0 181#080000000000
(1573490729.797000) can0 281#181600000400
(1573490729.797223) can0 381#82020A000200
(1573490729.804192) can0 201#06000000400D0300
(1573490729.804361) can0 080#00
(1573490729.804591) can0 181#080000000000
(1573490729.804799) can0 281#181600000400
(1573490729.805018) can0 381#83020A000200
(1573490729.812009) can0 201#06000000400D0300
(1573490729.812182) can0 080#00
(1573490729.812411) can0 181#080000000000
(1573490729.812621) can0 281#181600000400
(1573490729.812828) can0 381#83020A000200
(1573490729.814699) can0 001#FF6E03F7001018D0
(1573490729.814956) can0 003#1000000000000000
(1573490729.815190) can0 002#8DCC8D4300000013
(1573490729.819818) can0 201#06000000400D0300
(1573490729.820012) can0 080#00
(1573490729.820211) can0 181#080000000000
(1573490729.820420) can0 281#181600000400
(1573490729.820627) can0 381#82020A000200
(1573490729.827622) can0 201#06000000400D0300
(1573490729.827800) can0 080#00
(1573490729.828028) can0 181#080000000000
(1573490729.828236) can0 281#181600000400
(1573490729.828446) can0 381#82020A000200
(1573490729.835445) can0 201#06000000400D0300
(1573490729.835613) can0 080#00
(1573490729.835841) can0 181#080000000000
(1573490729.836047) can0 281#181600000400
(1573490729.836268) can0 381#82020A000200
(1573490729.843241) can0 201#06000000400D0300
(1573490729.843412) can0 080#00
(1573490729.843643) can0 181#080000000000
(1573490729.843851) can0 281#181600000400
(1573490729.844068) can0 381#82020A000200
(1573490729.846759) can0 10000002#188D9E03F700BE00
(1573490729.851077) can0 201#06000000400D0300
(1573490729.851240) can0 080#00
(1573490729.851467) can0 181#080000000000
(1573490729.851675) can0 281#181600000400
(1573490729.851892) can0 381#83020A000200
(1573490729.856037) can0 234#1122000000000000
(1573490729.858869) can0 201#06000000400D0300
(1573490729.859035) can0 080#00
(1573490729.859272) can0 181#080000000000
(1573490729.859476) can0 281#181600000400
(1573490729.859685) can0 381#82020A000200
(1573490729.861698) can0 036#268DA800BE8C9376
(1573490729.866687) can0 201#06000000400D0300
(1573490729.866860) can0 080#00
(1573490729.867089) can0 181#080000000000
(1573490729.867298) can0 281#181600000400
(1573490729.867514) can0 381#83020A000200
(1573490729.874509) can0 201#06000000400D0300
(1573490729.874679) can0 080#00
(1573490729.874937) can0 181#080000000000
(1573490729.875145) can0 281#181600000400
(1573490729.875354) can0 381#83020A000200
(1573490729.882303) can0 201#06000000400D0300
(1573490729.882474) can0 080#00
(1573490729.882707) can0 181#080000000000
(1573490729.882915) can0 281#181600000400
(1573490729.883123) can0 381#83020A000200
(1573490729.890122) can0 201#06000000400D0300
(1573490729.890290) can0 080#00
(1573490729.890520) can0 181#080000000000
(1573490729.890728) can0 281#181600000400
(1573490729.890936) can0 381#82020A000200
(1573490729.897926) can0 201#06000000400D0300
(1573490729.898095) can0 080#00
(1573490729.898322) can0 181#080000000000
(1573490729.898530) can0 281#181600000400
(1573490729.898738) can0 381#82020A000200
(1573490729.905757) can0 201#06000000400D0300
(1573490729.905923) can0 080#00
(1573490729.906180) can0 181#080000000000
(1573490729.906388) can0 281#181600000400
(1573490729.906597) can0 381#82020A000200
(1573490729.913544) can0 201#06000000400D0300
(1573490729.913721) can0 080#00
(1573490729.913951) can0 181#080000000000
(1573490729.914159) can0 281#181600000400
(1573490729.914367) can0 381#82020A000200
(1573490729.921373) can0 201#06000000400D0300
(1573490729.921536) can0 080#00
(1573490729.921802) can0 181#080000000000
(1573490729.922017) can0 281#181600000400
(1573490729.922230) can0 381#83020A000200
(1573490729.926704) can0 001#FF7203F7001018D0
(1573490729.926957) can0 003#1000000000000000
(1573490729.927192) can0 002#8DD18D4E00000013
(1573490729.929306) can0 201#06000000400D0300
(1573490729.929476) can0 080#00
(1573490729.929739) can0 181#080000000000
(1573490729.929947) can0 281#181600000400
(1573490729.930155) can0 381#83020A000200
(1573490729.936994) can0 201#06000000400D0300
(1573490729.937158) can0 080#00
(1573490729.937386) can0 181#080000000000
(1573490729.937594) can0 281#181600000400
(1573490729.937816) can0 381#82020A000200
(1573490729.944787) can0 201#06000000400D0300
(1573490729.944958) can0 080#00
(1573490729.945187) can0 181#080000000000
(1573490729.945394) can0 281#181600000400
(1573490729.945602) can0 381#83020A000200
(1573490729.950750) can0 10000002#188DA303F700BE00
(1573490729.952686) can0 201#06000000400D0300
(1573490729.952853) can0 080#00
(1573490729.953114) can0 181#080000000000
(1573490729.953321) can0 281#181600000400
(1573490729.953529) can0 381#82020A000200
(1573490729.956151) can0 234#1122000000000000
(1573490729.960419) can0 201#06000000400D0300
(1573490729.960590) can0 080#00
(1573490729.960820) can0 181#080000000000
(1573490729.961027) can0 281#181600000400
(1573490729.961236) can0 381#82020A000200
(1573490729.961700) can0 036#278D9E00BE8C8B65
(1573490729.968239) can0 201#06000000400D0300
(1573490729.968406) can0 080#00
(1573490729.968636) can0 181#080000000000
(1573490729.968844) can0 281#181600000400
(1573490729.969053) can0 381#83020A000200
(1573490729.976051) can0 201#06000000400D0300
(1573490729.976218) can0 080#00
(1573490729.976441) can0 181#080000000000
(1573490729.976650) can0 281#181600000400
(1573490729.976859) can0 381#82020A000200
(1573490729.983842) can0 201#06000000400D0300
(1573490729.984013) can0 080#00
(1573490729.984240) can0 181#080000000000
(1573490729.984449) can0 281#181600000400
(1573490729.984657) can0 381#83020A000200
(1573490729.991669) can0 201#06000000400D0300
(1573490729.991848) can0 080#00
(1573490729.992105) can0 181#080000000000
(1573490729.992315) can0 281#181600000400
(1573490729.992522) can0 381#82020A000200
(1573490729.999468) can0 201#06000000400D0300
(1573490729.999642) can0 080#00
(1573490729.999871) can0 181#080000000000
(1573490730.000080) can0 281#181600000400
(1573490730.000288) can0 381#82020A000200
(1573490730.007285) can0 201#06000000400D0300
(1573490730.007446) can0 080#00
(1573490730.007679) can0 181#080000000000
(1573490730.007888) can0 281#181600000400
(1573490730.008097) can0 381#83020A000200
(1573490730.015152) can0 201#06000000400D0300
(1573490730.015279) can0 080#00
(1573490730.015497) can0 181#080000000000
(1573490730.015706) can0 281#181600000400
(1573490730.015913) can0 381#82020A000200
(1573490730.022900) can0 201#06000000400D0300
(1573490730.023072) can0 080#00
(1573490730.023300) can0 181#080000000000
(1573490730.023507) can0 281#181600000400
(1573490730.023716) can0 381#82020A000200
(1573490730.030725) can0 201#06000000400D0300
(1573490730.030899) can0 080#00
(1573490730.031162) can0 181#080000000000
(1573490730.031365) can0 281#181600000400
(1573490730.031573) can0 381#82020A000200
(1573490730.038541) can0 201#06000000400D0300
(1573490730.038788) can0 003#1000000000000000
(1573490730.039025) can0 002#8DCE8D4700000013
(1573490730.039263) can0 001#FF6E03F7001018D0
(1573490730.039380) can0 080#00
(1573490730.039592) can0 181#080000000000
(1573490730.039799) can0 281#181600000400
(1573490730.040022) can0 381#82020A000200
(1573490730.046335) can0 201#06000000400D0300
(1573490730.046500) can0 080#00
(1573490730.046734) can0 181#080000000000
(1573490730.046942) can0 281#181600000400
(1573490730.047164) can0 381#82020A000200
(1573490730.054155) can0 201#06000000400D0300
(1573490730.054324) can0 080#00
(1573490730.054555) can0 181#080000000000
(1573490730.054763) can0 281#181600000400
(1573490730.054988) can0 381#82020A000200
(1573490730.055257) can0 10000002#188DA003F700BE00
(1573490730.058624) can0 234#1122000000000000
(1573490730.061692) can0 036#288D9E00BE8C8964
(1573490730.062030) can0 201#06000000400D0300
(1573490730.062200) can0 080#00
(1573490730.062480) can0 181#080000000000
(1573490730.062668) can0 281#181600000400
(1573490730.062877) can0 381#82020A000200
(1573490730.069775) can0 201#06000000400D0300
(1573490730.069947) can0 080#00
(1573490730.070165) can0 181#080000000000
(1573490730.070374) can0 281#181600000400
(1573490730.070583) can0 381#82020A000200
(1573490730.077579) can0 201#06000000400D0300
(1573490730.077754) can0 080#00
(1573490730.077983) can0 181#080000000000
(1573490730.078191) can0 281#181600000400
(1573490730.078399) can0 381#82020A000200
(1573490730.085394) can0 201#06000000400D0300
(1573490730.085567) can0 080#00
(1573490730.085797) can0 181#080000000000
(1573490730.086001) can0 281#181600000400
(1573490730.086210) can0 381#83020A000200
(1573490730.093196) can0 201#06000000400D0300
(1573490730.093367) can0 080#00
(1573490730.093597) can0 181#080000000000
(1573490730.093807) can0 281#181600000400
(1573490730.094013) can0 381#83020A000200
(1573490730.101009) can0 201#06000000400D0300
(1573490730.101179) can0 080#00
(1573490730.101416) can0 181#080000000000
(1573490730.101618) can0 281#181600000400
(1573490730.101827) can0 381#82020A000200
(1573490730.108815) can0 201#06000000400D0300
(1573490730.108988) can0 080#00
(1573490730.109216) can0 181#080000000000
(1573490730.109423) can0 281#181600000400
(1573490730.109632) can0 381#82020A000200
(1573490730.116634) can0 201#06000000400D0300
(1573490730.116811) can0 080#00
(1573490730.117048) can0 181#080000000000
(1573490730.117251) can0 281#181600000400
(1573490730.117458) can0 381#82020A000200
(1573490730.124441) can0 201#06000000400D0300
(1573490730.124619) can0 080#00
(1573490730.124847) can0 181#080000000000
(1573490730.125057) can0 281#181600000400
(1573490730.125263) can0 381#83020A000200
(1573490730.132252) can0 201#06000000400D0300
(1573490730.132423) can0 080#00
(1573490730.132657) can0 181#080000000000
(1573490730.132868) can0 281#181600000400
(1573490730.133074) can0 381#82020A000200
(1573490730.140059) can0 201#06000000400D0300
(1573490730.140232) can0 080#00
(1573490730.140463) can0 181#080000000000
(1573490730.140670) can0 281#181600000400
(1573490730.140877) can0 381#82020A000200
(1573490730.147874) can0 201#06000000400D0300
(1573490730.148047) can0 080#00
(1573490730.148276) can0 181#080000000000
(1573490730.148490) can0 281#181600000400
(1573490730.148692) can0 381#82020A000200
(1573490730.150691) can0 001#FF7303F7001018D0
(1573490730.150946) can0 003#1000000000000000
(1573490730.151184) can0 002#8DD38D4B00000013
(1573490730.155688) can0 201#06000000400D0300
(1573490730.155863) can0 080#00
(1573490730.156095) can0 181#080000000000
(1573490730.156302) can0 281#181600000400
(1573490730.156513) can0 381#82020A000200
(1573490730.157149) can0 234#1122000000000000
(1573490730.158744) can0 10000002#188DA203F700BE00
(1573490730.161696) can0 036#298D4800BE8C34BA
(1573490730.163576) can0 201#06000000400D0300
(1573490730.163753) can0 080#00
(1573490730.164011) can0 181#080000000000
(1573490730.164219) can0 281#181600000400
(1573490730.164427) can0 381#83020A000200
(1573490730.171311) can0 201#06000000400D0300
(1573490730.171487) can0 080#00
(1573490730.171711) can0 181#080000000000
(1573490730.171920) can0 281#181600000400
(1573490730.172128) can0 381#82020A000200
(1573490730.179134) can0 201#06000000400D0300
(1573490730.179310) can0 080#00
(1573490730.179532) can0 181#080000000000
(1573490730.179741) can0 281#181600000400
(1573490730.179948) can0 381#82020A000200
(1573490730.186941) can0 201#06000000400D0300
(1573490730.187110) can0 080#00
(1573490730.187339) can0 181#080000000000
(1573490730.187548) can0 281#181600000400
(1573490730.187778) can0 381#83020A000200
(1573490730.194750) can0 201#06000000400D0300
(1573490730.194922) can0 080#00
(1573490730.195151) can0 181#080000000000
(1573490730.195360) can0 281#181600000400
(1573490730.195564) can0 381#83020A000200
(1573490730.202552) can0 201#06000000400D0300
(1573490730.202728) can0 080#00
(1573490730.202959) can0 181#080000000000
(1573490730.203168) can0 281#181600000400
(1573490730.203393) can0 381#82020A000200
(1573490730.210362) can0 201#06000000400D0300
(1573490730.210535) can0 080#00
(1573490730.210773) can0 181#080000000000
(1573490730.210983) can0 281#181600000400
(1573490730.211190) can0 381#82020A000200
(1573490730.218170) can0 201#06000000400D0300
(1573490730.218342) can0 080#00
(1573490730.218572) can0 181#080000000000
(1573490730.218781) can0 281#181600000400
(1573490730.219007) can0 381#82020A000200
(1573490730.225981) can0 201#06000000400D0300
(1573490730.226153) can0 080#00
(1573490730.226383) can0 181#080000000000
(1573490730.226591) can0 281#181600000400
(1573490730.226799) can0 381#82020A000200
(1573490730.233791) can0 201#06000000400D0300
(1573490730.233963) can0 080#00
(1573490730.234194) can0 181#080000000000
(1573490730.234402) can0 281#181600000400
(1573490730.234629) can0 381#82020A000200
(1573490730.241610) can0 201#06000000400D0300
(1573490730.241788) can0 080#00
(1573490730.242017) can0 181#080000000000
(1573490730.242225) can0 281#181600000400
(1573490730.242433) can0 381#82020A000200
(1573490730.249421) can0 201#06000000400D0300
(1573490730.249597) can0 080#00
(1573490730.249825) can0 181#080000000000
(1573490730.250032) can0 281#181600000400
(1573490730.250250) can0 381#82020A000200
(1573490730.255604) can0 234#1122000000000000
(1573490730.257344) can0 201#06000000400D0300
(1573490730.257486) can0 080#00
(1573490730.257749) can0 181#080000000000
(1573490730.257956) can0 281#181600000400
(1573490730.258177) can0 381#82020A000200
(1573490730.261694) can0 036#2A8DA800BE8C9279
(1573490730.262748) can0 001#FF6E03F7001018D0
(1573490730.263003) can0 003#1000000000000000
(1573490730.263245) can0 002#8DCF8D4800000013
(1573490730.263532) can0 10000002#188DA003F700BE00
(1573490730.265351) can0 201#06000000400D0300
(1573490730.265516) can0 080#00
(1573490730.265752) can0 181#080000000000
(1573490730.265960) can0 281#181600000400
(1573490730.266168) can0 381#82020A000200
(1573490730.272859) can0 201#06000000400D0300
(1573490730.273025) can0 080#00
(1573490730.273253) can0 181#080000000000
(1573490730.273469) can0 281#181600000400
(1573490730.273671) can0 381#82020A000200
(1573490730.280668) can0 201#06000000400D0300
(1573490730.280843) can0 080#00
(1573490730.281071) can0 181#080000000000
(1573490730.281281) can0 281#181600000400
(1573490730.281488) can0 381#82020A000200
(1573490730.288480) can0 201#06000000400D0300
(1573490730.288654) can0 080#00
(1573490730.288880) can0 181#080000000000
(1573490730.289089) can0 281#181600000400
(1573490730.289296) can0 381#82020A000200
(1573490730.296281) can0 201#06000000400D0300
(1573490730.296452) can0 080#00
(1573490730.296686) can0 181#080000000000
(1573490730.296894) can0 281#181600000400
(1573490730.297106) can0 381#83020A000200
(1573490730.304107) can0 201#06000000400D0300
(1573490730.304279) can0 080#00
(1573490730.304508) can0 181#080000000000
(1573490730.304715) can0 281#181600000400
(1573490730.304924) can0 381#82020A000200
(1573490730.311906) can0 201#06000000400D0300
(1573490730.312076) can0 080#00
(1573490730.312314) can0 181#080000000000
(1573490730.312514) can0 281#181600000400
(1573490730.312718) can0 381#82020A000200
(1573490730.319716) can0 201#06000000400D0300
(1573490730.319886) can0 080#00
(1573490730.320117) can0 181#080000000000
(1573490730.320325) can0 281#181600000400
(1573490730.320532) can0 381#83020A000200
(1573490730.327548) can0 201#06000000400D0300
(1573490730.327715) can0 080#00
(1573490730.327973) can0 181#080000000000
(1573490730.328180) can0 281#181600000400
(1573490730.328404) can0 381#82020A000200
(1573490730.335341) can0 201#06000000400D0300
(1573490730.335512) can0 080#00
(1573490730.335745) can0 181#080000000000
(1573490730.335953) can0 281#181600000400
(1573490730.336161) can0 381#82020A000200
(1573490730.343146) can0 201#06000000400D0300
(1573490730.343318) can0 080#00
(1573490730.343548) can0 181#080000000000
(1573490730.343755) can0 281#181600000400
(1573490730.343979) can0 381#82020A000200
(1573490730.350969) can0 201#06000000400D0300
(1573490730.351135) can0 080#00
(1573490730.351361) can0 181#080000000000
(1573490730.351569) can0 281#181600000400
(1573490730.351777) can0 381#82020A000200
(1573490730.356390) can0 234#1122000000000000
(1573490730.358849) can0 201#06000000400D0300
(1573490730.359019) can0 080#00
(1573490730.359276) can0 181#080000000000
(1573490730.359484) can0 281#181600000400
(1573490730.359709) can0 381#82020A000200
(1573490730.361680) can0 036#2B8D9E00BE8C8B69
(1573490730.366586) can0 201#06000000400D0300
(1573490730.366871) can0 10000002#188DA303F700BE00
(1573490730.366992) can0 080#00
(1573490730.367202) can0 181#080000000000
(1573490730.367410) can0 281#181600000400
(1573490730.367619) can0 381#82020A000200
(1573490730.374401) can0 201#06000000400D0300
(1573490730.374681) can0 001#FF7103F7001018D0
(1573490730.374933) can0 003#1000000000000000
(1573490730.375170) can0 002#8DCF8D4A00000013
(1573490730.375288) can0 080#00
(1573490730.375500) can0 181#080000000000
(1573490730.375709) can0 281#181600000400
(1573490730.375916) can0 381#82020A000200
(1573490730.382214) can0 201#06000000400D0300
(1573490730.382383) can0 080#00
(1573490730.382608) can0 181#080000000000
(1573490730.382817) can0 281#181600000400
(1573490730.383025) can0 381#82020A000200
(1573490730.390028) can0 201#06000000400D0300
(1573490730.390198) can0 080#00
(1573490730.390425) can0 181#080000000000
(1573490730.390632) can0 281#181600000400
(1573490730.390858) can0 381#82020A000200
(1573490730.397832) can0 201#06000000400D0300
(1573490730.398001) can0 080#00
(1573490730.398227) can0 181#080000000000
(1573490730.398436) can0 281#181600000400
(1573490730.398643) can0 381#83020A000200
(1573490730.405656) can0 201#06000000400D0300
(1573490730.405826) can0 080#00
(1573490730.406083) can0 181#080000000000
(1573490730.406292) can0 281#181600000400
(1573490730.406500) can0 381#83020A000200
(1573490730.413463) can0 201#06000000400D0300
(1573490730.413638) can0 080#00
(1573490730.413895) can0 181#080000000000
(1573490730.414104) can0 281#181600000400
(1573490730.414313) can0 381#82020A000200
(1573490730.421258) can0 201#06000000400D0300
(1573490730.421429) can0 080#00
(1573490730.421666) can0 181#080000000000
(1573490730.421872) can0 281#181600000400
(1573490730.422080) can0 381#82020A000200
(1573490730.429073) can0 201#06000000400D0300
(1573490730.429251) can0 080#00
(1573490730.429472) can0 181#080000000000
(1573490730.429680) can0 281#181600000400
(1573490730.429889) can0 381#82020A000200
(1573490730.436885) can0 201#06000000400D0300
(1573490730.437052) can0 080#00
(1573490730.437287) can0 181#080000000000
(1573490730.437486) can0 281#181600000400
(1573490730.437725) can0 381#82020A000200
(1573490730.444701) can0 201#06000000400D0300
(1573490730.444871) can0 080#00
(1573490730.445109) can0 181#080000000000
(1573490730.445310) can0 281#181600000400
(1573490730.445518) can0 381#82020A000200
(1573490730.452523) can0 201#06000000400D0300
(1573490730.452695) can0 080#00
(1573490730.452950) can0 181#080000000000
(1573490730.453160) can0 281#181600000400
(1573490730.453369) can0 381#82020A000200
(1573490730.455900) can0 234#1122000000000000
(1573490730.460319) can0 201#06000000400D0300
(1573490730.460486) can0 080#00
(1573490730.460724) can0 181#080000000000
(1573490730.460933) can0 281#181600000400
(1573490730.461141) can0 381#82020A000200
(1573490730.461675) can0 036#308D8F00BE8C784C
(1573490730.468177) can0 201#06000000400D0300
(1573490730.468323) can0 080#00
(1573490730.468579) can0 181#080000000000
(1573490730.468788) can0 281#181600000400
(1573490730.468995) can0 381#82020A000200
(1573490730.470729) can0 10000002#188DA103F700BE00
(1573490730.475945) can0 201#06000000400D0300
(1573490730.476107) can0 080#00
(1573490730.476337) can0 181#080000000000
(1573490730.476546) can0 281#181600000400
(1573490730.476753) can0 381#83020A000200
(1573490730.483755) can0 201#06000000400D0300
(1573490730.483925) can0 080#00
(1573490730.484147) can0 181#080000000000
(1573490730.484354) can0 281#181600000400
(1573490730.484563) can0 381#82020A000200
(1573490730.486675) can0 001#FF6F03F7001018D0
(1573490730.486927) can0 003#1000000000000000
(1573490730.487170) can0 002#8DD28D4B00000013
(1573490730.491576) can0 201#06000000400D0300
(1573490730.491748) can0 080#00
(1573490730.492005) can0 181#080000000000
(1573490730.492213) can0 281#181600000400
(1573490730.492422) can0 381#82020A000200
(1573490730.499375) can0 201#06000000400D0300
(1573490730.499549) can0 080#00
(1573490730.499773) can0 181#080000000000
(1573490730.499983) can0 281#181600000400
(1573490730.500189) can0 381#83020A000200
(1573490730.507182) can0 201#06000000400D0300
(1573490730.507351) can0 080#00
(1573490730.507578) can0 181#080000000000
(1573490730.507788) can0 281#181600000400
(1573490730.507996) can0 381#83020A000200
(1573490730.514990) can0 201#06000000400D0300
(1573490730.515160) can0 080#00
(1573490730.515390) can0 181#080000000000
(1573490730.515597) can0 281#181600000400
(1573490730.515820) can0 381#83020A000200
(1573490730.522816) can0 201#06000000400D0300
(1573490730.522987) can0 080#00
(1573490730.523216) can0 181#080000000000
(1573490730.523425) can0 281#181600000400
(1573490730.523646) can0 381#82020A000200
(1573490730.530624) can0 201#06000000400D0300
(1573490730.530795) can0 080#00
(1573490730.531021) can0 181#080000000000
(1573490730.531228) can0 281#181600000400
(1573490730.531437) can0 381#82020A000200
(1573490730.538428) can0 201#06000000400D0300
(1573490730.538604) can0 080#00
(1573490730.538832) can0 181#080000000000
(1573490730.539040) can0 281#181600000400
(1573490730.539249) can0 381#82020A000200
(1573490730.546240) can0 201#06000000400D0300
(1573490730.546405) can0 080#00
(1573490730.546638) can0 181#080000000000
(1573490730.546848) can0 281#181600000400
(1573490730.547055) can0 381#82020A000200
(1573490730.554056) can0 201#06000000400D0300
(1573490730.554221) can0 080#00
(1573490730.554450) can0 181#080000000000
(1573490730.554656) can0 281#181600000400
(1573490730.554864) can0 381#82020A000200
(1573490730.556389) can0 234#1122000000000000
(1573490730.561675) can0 036#318D9200BE8C8058
(1573490730.561920) can0 201#06000000400D0300
(1573490730.562108) can0 080#00
(1573490730.562366) can0 181#080000000000
(1573490730.562574) can0 281#181600000400
(1573490730.562783) can0 381#82020A000200
(1573490730.569679) can0 201#06000000400D0300
(1573490730.569848) can0 080#00
(1573490730.570077) can0 181#080000000000
(1573490730.570285) can0 281#181600000400
(1573490730.570509) can0 381#83020A000200
(1573490730.574730) can0 10000002#188DA003F700BE00
(1573490730.577488) can0 201#06000000400D0300
(1573490730.577657) can0 080#00
(1573490730.577886) can0 181#080000000000
(1573490730.578094) can0 281#181600000400
(1573490730.578302) can0 381#82020A000200
(1573490730.585299) can0 201#06000000400D0300
(1573490730.585466) can0 080#00
(1573490730.585696) can0 181#080000000000
(1573490730.585907) can0 281#181600000400
(1573490730.586113) can0 381#82020A000200
(1573490730.593105) can0 201#06000000400D0300
(1573490730.593273) can0 080#00
(1573490730.593502) can0 181#080000000000
(1573490730.593711) can0 281#181600000400
(1573490730.593920) can0 381#83020A000200
(1573490730.598679) can0 001#FF6F03F7001018D0
(1573490730.598924) can0 003#1000000000000000
(1573490730.599164) can0 002#8DCE8D4800000013
(1573490730.601156) can0 201#06000000400D0300
(1573490730.601328) can0 080#00
(1573490730.601555) can0 181#080000000000
(1573490730.601765) can0 281#181600000400
(1573490730.601972) can0 381#82020A000200
(1573490730.608722) can0 201#06000000400D0300
(1573490730.608893) can0 080#00
(1573490730.609120) can0 181#080000000000
(1573490730.609330) can0 281#181600000400
(1573490730.609537) can0 381#83020A000200
(1573490730.616540) can0 201#06000000400D0300
(1573490730.616716) can0 080#00
(1573490730.616943) can0 181#080000000000
(1573490730.617152) can0 281#181600000400
(1573490730.617360) can0 381#82020A000200
(1573490730.624344) can0 201#06000000400D0300
(1573490730.624520) can0 080#00
(1573490730.624750) can0 181#080000000000
(1573490730.624958) can0 281#181600000400
(1573490730.625166) can0 381#82020A000200
(1573490730.632170) can0 201#06000000400D0300
(1573490730.632341) can0 080#00
(1573490730.632569) can0 181#080000000000
(1573490730.632776) can0 281#181600000400
(1573490730.632987) can0 381#82020A000200
(1573490730.639965) can0 201#06000000400D0300
(1573490730.640138) can0 080#00
(1573490730.640365) can0 181#080000000000
(1573490730.640573) can0 281#181600000400
(1573490730.640781) can0 381#82020A000200
(1573490730.647787) can0 201#06000000400D0300
(1573490730.647954) can0 080#00
(1573490730.648180) can0 181#080000000000
(1573490730.648389) can0 281#181600000400
(1573490730.648596) can0 381#82020A000200
(1573490730.655648) can0 201#06000000400D0300
(1573490730.655775) can0 080#00
(1573490730.656039) can0 181#080000000000
(1573490730.656246) can0 281#181600000400
(1573490730.656455) can0 381#82020A000200
(1573490730.657088) can0 234#1122000000000000
(1573490730.661681) can0 036#328DA300BE8C8D77
(1573490730.663517) can0 201#06000000400D0300
(1573490730.663695) can0 080#00
(1573490730.663923) can0 181#080000000000
(1573490730.664133) can0 281#181600000400
(1573490730.664341) can0 381#82020A000200
(1573490730.671212) can0 201#06000000400D0300
(1573490730.671382) can0 080#00
(1573490730.671624) can0 181#080000000000
(1573490730.671825) can0 281#181600000400
(1573490730.672033) can0 381#82020A000200
(1573490730.678796) can0 10000002#188DA203F700BE00
(1573490730.679040) can0 201#06000000400D0300
(1573490730.679155) can0 080#00
(1573490730.679372) can0 181#080000000000
(1573490730.679580) can0 281#181600000400
(1573490730.679789) can0 381#82020A000200
(1573490730.686842) can0 201#06000000400D0300
(1573490730.687010) can0 080#00
(1573490730.687232) can0 181#080000000000
(1573490730.687442) can0 281#181600000400
(1573490730.687649) can0 381#82020A000200
(1573490730.694660) can0 201#06000000400D0300
(1573490730.694827) can0 080#00
(1573490730.695063) can0 181#080000000000
(1573490730.695264) can0 281#181600000400
(1573490730.695470) can0 381#83020A000200
(1573490730.702460) can0 201#06000000400D0300
(1573490730.702638) can0 080#00
(1573490730.702865) can0 181#080000000000
(1573490730.703072) can0 281#181600000400
(1573490730.703283) can0 381#83020A000200
(1573490730.710285) can0 201#06000000400D0300
(1573490730.710440) can0 080#00
(1573490730.710680) can0 001#FF7103F7001018D0
(1573490730.710934) can0 003#1000000000000000
(1573490730.711170) can0 002#8DD28D4B00000013
(1573490730.711381) can0 181#080000000000
(1573490730.711589) can0 281#181600000400
(1573490730.711797) can0 381#83020A000200
(1573490730.718076) can0 201#06000000400D0300
(1573490730.718248) can0 080#00
(1573490730.718476) can0 181#080000000000
(1573490730.718687) can0 281#181600000400
(1573490730.718892) can0 381#83020A000200
(1573490730.725894) can0 201#06000000400D0300
(1573490730.726068) can0 080#00
(1573490730.726287) can0 181#080000000000
(1573490730.726494) can0 281#181600000400
(1573490730.726704) can0 381#82020A000200
(1573490730.733708) can0 201#06000000400D0300
(1573490730.733880) can0 080#00
(1573490730.734108) can0 181#080000000000
(1573490730.734315) can0 281#181600000400
(1573490730.734523) can0 381#83020A000200
(1573490730.741515) can0 201#06000000400D0300
(1573490730.741692) can0 080#00
(1573490730.741924) can0 181#080000000000
(1573490730.742131) can0 281#181600000400
(1573490730.742338) can0 381#82020A000200
(1573490730.749321) can0 201#06000000400D0300
(1573490730.749491) can0 080#00
(1573490730.749725) can0 181#080000000000
(1573490730.749935) can0 281#181600000400
(1573490730.750142) can0 381#82020A000200
(1573490730.755541) can0 234#1122000000000000
(1573490730.757216) can0 201#06000000400D0300
(1573490730.757382) can0 080#00
(1573490730.757643) can0 181#080000000000
(1573490730.757851) can0 281#181600000400
(1573490730.758060) can0 381#82020A000200
(1573490730.761674) can0 036#338D9300BE8C805B
(1573490730.764951) can0 201#06000000400D0300
(1573490730.765121) can0 080#00
(1573490730.765355) can0 181#080000000000
(1573490730.765562) can0 281#181600000400
(1573490730.765769) can0 381#83020A000200
(1573490730.772758) can0 201#06000000400D0300
(1573490730.772929) can0 080#00
(1573490730.773157) can0 181#080000000000
(1573490730.773364) can0 281#181600000400
(1573490730.773586) can0 381#82020A000200
(1573490730.780569) can0 201#06000000400D0300
(1573490730.780744) can0 080#00
(1573490730.780974) can0 181#080000000000
(1573490730.781183) can0 281#181600000400
(1573490730.781388) can0 381#820209000200
(1573490730.782716) can0 10000002#188D9D03F700BE00
(1573490730.788398) can0 201#06000000400D0300
(1573490730.788566) can0 080#00
(1573490730.788823) can0 181#080000000000
(1573490730.789037) can0 281#181600000400
(1573490730.789240) can0 381#83020A000200
(1573490730.796204) can0 201#06000000400D0300
(1573490730.796381) can0 080#00
(1573490730.796603) can0 181#080000000000
(1573490730.796811) can0 281#181600000400
(1573490730.797019) can0 381#82020A000200
(1573490730.804007) can0 201#06000000400D0300
(1573490730.804174) can0 080#00
(1573490730.804403) can0 181#080000000000
(1573490730.804610) can0 281#181600000400
(1573490730.804818) can0 381#83020A000200
(1573490730.811809) can0 201#06000000400D0300
(1573490730.811982) can0 080#00
(1573490730.812210) can0 181#080000000000
(1573490730.812421) can0 281#181600000400
(1573490730.812628) can0 381#83020A000200
(1573490730.819627) can0 201#06000000400D0300
(1573490730.819800) can0 080#00
(1573490730.820030) can0 181#080000000000
(1573490730.820238) can0 281#181600000400
(1573490730.820447) can0 381#83020A000200
(1573490730.822726) can0 001#FF6E03F7001018D0
(1573490730.822980) can0 003#1000000000000000
(1573490730.823216) can0 002#8DCC8D4400000013
(1573490730.827440) can0 201#06000000400D0300
(1573490730.827608) can0 080#00
(1573490730.827839) can0 181#080000000000
(1573490730.828047) can0 281#181600000400
(1573490730.828271) can0 381#83020A000200
(1573490730.835262) can0 201#06000000400D0300
(1573490730.835427) can0 080#00
(1573490730.835690) can0 181#080000000000
(1573490730.835897) can0 281#181600000400
(1573490730.836122) can0 381#82020A000200
(1573490730.843062) can0 201#06000000400D0300
(1573490730.843233) can0 080#00
(1573490730.843463) can0 181#080000000000
(1573490730.843680) can0 281#181600000400
(1573490730.843880) can0 381#83020A000200
(1573490730.850874) can0 201#06000000400D0300
(1573490730.851036) can0 080#00
(1573490730.851269) can0 181#080000000000
(1573490730.851476) can0 281#181600000400
(1573490730.851683) can0 381#82020A000200
(1573490730.856222) can0 234#1122000000000000
(1573490730.858692) can0 201#06000000400D0300
(1573490730.858864) can0 080#00
(1573490730.859121) can0 181#080000000000
(1573490730.859330) can0 281#181600000400
(1573490730.859538) can0 381#83020A000200
(1573490730.861665) can0 036#348D9B00BE8C866A
(1573490730.866491) can0 201#06000000400D0300
(1573490730.866667) can0 080#00
(1573490730.866895) can0 181#080000000000
(1573490730.867104) can0 281#181600000400
(1573490730.867329) can0 381#82020A000200
(1573490730.874295) can0 201#06000000400D0300
(1573490730.874467) can0 080#00
(1573490730.874701) can0 181#080000000000
(1573490730.874909) can0 281#181600000400
(1573490730.875116) can0 381#82020A000200
(1573490730.882112) can0 201#06000000400D0300
(1573490730.882281) can0 080#00
(1573490730.882509) can0 181#080000000000
(1573490730.882719) can0 281#181600000400
(1573490730.882928) can0 381#82020A000200
(1573490730.886717) can0 10000002#188DA203F700BE00
(1573490730.889928) can0 201#06000000400D0300
(1573490730.890091) can0 080#00
(1573490730.890318) can0 181#080000000000
(1573490730.890527) can0 281#181600000400
(1573490730.890736) can0 381#83020A000200
(1573490730.897751) can0 201#06000000400D0300
(1573490730.897917) can0 080#00
(1573490730.898144) can0 181#080000000000
(1573490730.898352) can0 281#181600000400
(1573490730.898560) can0 381#82020A000200
(1573490730.905553) can0 201#06000000400D0300
(1573490730.905722) can0 080#00
(1573490730.905951) can0 181#080000000000
(1573490730.906159) can0 281#181600000400
(1573490730.906367) can0 381#82020A000200
(1573490730.913363) can0 201#06000000400D0300
(1573490730.913530) can0 080#00
(1573490730.913759) can0 181#080000000000
(1573490730.913968) can0 281#181600000400
(1573490730.914176) can0 381#83020A000200
(1573490730.921165) can0 201#06000000400D0300
(1573490730.921334) can0 080#00
(1573490730.921567) can0 181#080000000000
(1573490730.921772) can0 281#181600000400
(1573490730.921979) can0 381#83020A000200
(1573490730.928983) can0 201#06000000400D0300
(1573490730.929149) can0 080#00
(1573490730.929376) can0 181#080000000000
(1573490730.929584) can0 281#181600000400
(1573490730.929809) can0 381#82020A000200
(1573490730.934655) can0 001#FF7303F7001018D0
(1573490730.934908) can0 003#1000000000000000
(1573490730.935145) can0 002#8DD28D4D00000013
(1573490730.937021) can0 201#06000000400D0300
(1573490730.937164) can0 080#00
(1573490730.937423) can0 181#080000000000
(1573490730.937631) can0 281#181600000400
(1573490730.937856) can0 381#82020A000200
(1573490730.944610) can0 201#06000000400D0300
(1573490730.944788) can0 080#00
(1573490730.945053) can0 181#080000000000
(1573490730.945254) can0 281#181600000400
(1573490730.945461) can0 381#83020A000200
(1573490730.952416) can0 201#06000000400D0300
(1573490730.952589) can0 080#00
(1573490730.952815) can0 181#080000000000
(1573490730.953024) can0 281#181600000400
(1573490730.953232) can0 381#82020A000200
(1573490730.955846) can0 234#1122000000000000
(1573490730.960223) can0 201#06000000400D0300
(1573490730.960391) can0 080#00
(1573490730.960625) can0 181#080000000000
(1573490730.960834) can0 281#181600000400
(1573490730.961043) can0 381#82020A000200
(1573490730.961666) can0 036#358D9900BE8C8568
(1573490730.968043) can0 201#06000000400D0300
(1573490730.968214) can0 080#00
(1573490730.968444) can0 181#080000000000
(1573490730.968652) can0 281#181600000400
(1573490730.968860) can0 381#82020A000200
(1573490730.975851) can0 201#06000000400D0300
(1573490730.976023) can0 080#00
(1573490730.976251) can0 181#080000000000
(1573490730.976459) can0 281#181600000400
(1573490730.976668) can0 381#82020A000200
(1573490730.983659) can0 201#06000000400D0300
(1573490730.983830) can0 080#00
(1573490730.984057) can0 181#080000000000
(1573490730.984265) can0 281#181600000400
(1573490730.984492) can0 381#82020A000200
(1573490730.990709) can0 10000002#188D9C03F700BE00
(1573490730.991584) can0 201#06000000400D0300
(1573490730.991753) can0 080#00
(1573490730.991982) can0 181#080000000000
(1573490730.992190) can0 281#181600000400
(1573490730.992399) can0 381#82020A000200
(1573490730.999294) can0 201#06000000400D0300
(1573490730.999467) can0 080#00
(1573490730.999719) can0 181#080000000000
(1573490730.999926) can0 281#181600000400
(1573490731.000134) can0 381#82020A000200
(1573490731.007088) can0 201#06000000400D0300
(1573490731.007257) can0 080#00
(1573490731.007485) can0 181#080000000000
(1573490731.007694) can0 281#181600000400
(1573490731.007902) can0 381#82020A000200
(1573490731.014919) can0 201#06000000400D0300
(1573490731.015144) can0 080#00
(1573490731.015321) can0 181#080000000000
(1573490731.015504) can0 281#181600000400
(1573490731.015716) can0 381#82020A000200
(1573490731.022725) can0 201#06000000400D0300
(1573490731.022892) can0 080#00
(1573490731.023119) can0 181#080000000000
(1573490731.023327) can0 281#181600000400
(1573490731.023535) can0 381#83020A000200
(1573490731.030531) can0 201#06000000400D0300
(1573490731.030706) can0 080#00
(1573490731.030967) can0 181#080000000000
(1573490731.031174) can0 281#181600000400
(1573490731.031382) can0 381#83020A000200
(1573490731.038346) can0 201#06000000400D0300
(1573490731.038515) can0 080#00
(1573490731.038772) can0 181#080000000000
(1573490731.038981) can0 281#181600000400
(1573490731.039188) can0 381#82020A000200
(1573490731.046158) can0 201#06000000400D0300
(1573490731.046319) can0 080#00
(1573490731.046549) can0 181#080000000000
(1573490731.046811) can0 003#1000000000000000
(1573490731.047040) can0 002#8DD08D4500000013
(1573490731.047277) can0 001#FF6E03F7001018D0
(1573490731.047493) can0 281#181600000400
(1573490731.047694) can0 381#82020A000200
(1573490731.053972) can0 201#06000000400D0300
(1573490731.054138) can0 080#00
(1573490731.054368) can0 181#080000000000
(1573490731.054573) can0 281#181600000400
(1573490731.054780) can0 381#82020A000200
(1573490731.056327) can0 234#1122000000000000
(1573490731.061662) can0 036#008DA700BE8C924E
(1573490731.061908) can0 201#06000000400D0300
(1573490731.062028) can0 080#00
(1573490731.062279) can0 181#080000000000
(1573490731.062487) can0 281#181600000400
(1573490731.062694) can0 381#83020A000200
(1573490731.069576) can0 201#06000000400D0300
(1573490731.069753) can0 080#00
(1573490731.069981) can0 181#080000000000
(1573490731.070189) can0 281#181600000400
(1573490731.070413) can0 381#82020A000200
(1573490731.077384) can0 201#06000000400D0300
(1573490731.077561) can0 080#00
(1573490731.077790) can0 181#080000000000
(1573490731.077997) can0 281#181600000400
(1573490731.078222) can0 381#82020A000200
(1573490731.085197) can0 201#06000000400D0300
(1573490731.085368) can0 080#00
(1573490731.085602) can0 181#080000000000
(1573490731.085810) can0 281#181600000400
(1573490731.086019) can0 381#82020A000200
(1573490731.093030) can0 201#06000000400D0300
(1573490731.093198) can0 080#00
(1573490731.093416) can0 181#080000000000
(1573490731.093623) can0 281#181600000400
(1573490731.093847) can0 381#82020A000200
(1573490731.094700) can0 10000002#188DA103F700BE00
(1573490731.100878) can0 201#06000000400D0300
(1573490731.101045) can0 080#00
(1573490731.101274) can0 181#080000000000
(1573490731.101483) can0 281#181600000400
(1573490731.101690) can0 381#830209000200
(1573490731.108664) can0 201#06000000400D0300
(1573490731.108826) can0 080#00
(1573490731.109077) can0 181#080000000000
(1573490731.109285) can0 281#181600000400
(1573490731.109493) can0 381#83020A000200
(1573490731.116459) can0 201#06000000400D0300
(1573490731.116633) can0 080#00
(1573490731.116889) can0 181#080000000000
(1573490731.117097) can0 281#181600000400
(1573490731.117305) can0 381#82020A000200
(1573490731.124311) can0 201#06000000400D0300
(1573490731.124428) can0 080#00
(1573490731.124675) can0 181#080000000000
(1573490731.124873) can0 281#181600000400
(1573490731.125099) can0 381#83020A000200
(1573490731.132073) can0 201#06000000400D0300
(1573490731.132243) can0 080#00
(1573490731.132472) can0 181#080000000000
(1573490731.132682) can0 281#181600000400
(1573490731.132891) can0 381#83020A000200
(1573490731.139886) can0 201#06000000400D0300
(1573490731.140052) can0 080#00
(1573490731.140282) can0 181#080000000000
(1573490731.140489) can0 281#181600000400
(1573490731.140698) can0 381#82020A000200
(1573490731.147696) can0 201#06000000400D0300
(1573490731.147866) can0 080#00
(1573490731.148094) can0 181#080000000000
(1573490731.148303) can0 281#181600000400
(1573490731.148510) can0 381#82020A000200
(1573490731.155509) can0 201#06000000400D0300
(1573490731.155742) can0 234#1122000000000000
(1573490731.155868) can0 080#00
(1573490731.156082) can0 181#080000000000
(1573490731.156289) can0 281#181600000400
(1573490731.156497) can0 381#82020A000200
(1573490731.158710) can0 001#FF7203F7001018D0
(1573490731.158965) can0 003#1000000000000000
(1573490731.159202) can0 002#8DD28D4A00000013
(1573490731.161659) can0 036#018D9C00BE8C8B3D
(1573490731.163381) can0 201#06000000400D0300
(1573490731.163560) can0 080#00
(1573490731.163832) can0 181#080000000000
(1573490731.164025) can0 281#181600000400
(1573490731.164232) can0 381#82020A000200
(1573490731.171125) can0 201#06000000400D0300
(1573490731.171299) can0 080#00
(1573490731.171526) can0 181#080000000000
(1573490731.171735) can0 281#181600000400
(1573490731.171943) can0 381#82020A000200
(1573490731.178928) can0 201#06000000400D0300
(1573490731.179100) can0 080#00
(1573490731.179329) can0 181#080000000000
(1573490731.179539) can0 281#181600000400
(1573490731.179746) can0 381#82020A000200
(1573490731.186734) can0 201#06000000400D0300
(1573490731.186909) can0 080#00
(1573490731.187138) can0 181#080000000000
(1573490731.187345) can0 281#181600000400
(1573490731.187569) can0 381#82020A000200
(1573490731.194561) can0 201#06000000400D0300
(1573490731.194738) can0 080#00
(1573490731.194996) can0 181#080000000000
(1573490731.195206) can0 281#181600000400
(1573490731.195411) can0 381#830209000200
(1573490731.198697) can0 10000002#188D9D03F700BE00
(1573490731.202368) can0 201#06000000400D0300
(1573490731.202551) can0 080#00
(1573490731.202779) can0 181#080000000000
(1573490731.202976) can0 281#181600000400
(1573490731.203184) can0 381#83020A000200
(1573490731.210189) can0 201#06000000400D0300
(1573490731.210360) can0 080#00
(1573490731.210634) can0 181#080000000000
(1573490731.210826) can0 281#181600000400
(1573490731.211040) can0 381#82020A000200
(1573490731.217983) can0 201#06000000400D0300
(1573490731.218155) can0 080#00
(1573490731.218383) can0 181#080000000000
(1573490731.218592) can0 281#181600000400
(1573490731.218800) can0 381#83020A000200
(1573490731.225796) can0 201#06000000400D0300
(1573490731.225964) can0 080#00
(1573490731.226193) can0 181#080000000000
(1573490731.226405) can0 281#181600000400
(1573490731.226611) can0 381#83020A000200
(1573490731.233613) can0 201#06000000400D0300
(1573490731.233784) can0 080#00
(1573490731.234010) can0 181#080000000000
(1573490731.234218) can0 281#181600000400
(1573490731.234426) can0 381#83020A000200
(1573490731.241421) can0 201#06000000400D0300
(1573490731.241598) can0 080#00
(1573490731.241827) can0 181#080000000000
(1573490731.242035) can0 281#181600000400
(1573490731.242245) can0 381#82020A000200
(1573490731.249222) can0 201#06000000400D0300
(1573490731.249397) can0 080#00
(1573490731.249629) can0 181#080000000000
(1573490731.249838) can0 281#181600000400
(1573490731.250045) can0 381#83020A000200
(1573490731.256442) can0 234#1122000000000000
(1573490731.257118) can0 201#06000000400D0300
(1573490731.257286) can0 080#00
(1573490731.257543) can0 181#080000000000
(1573490731.257757) can0 281#181600000400
(1573490731.257964) can0 381#82020A000200
(1573490731.261674) can0 036#028DAB00BE8C985A
(1573490731.264859) can0 201#06000000400D0300
(1573490731.265028) can0 080#00
(1573490731.265258) can0 181#080000000000
(1573490731.265466) can0 281#181600000400
(1573490731.265674) can0 381#82020A000200
(1573490731.270638) can0 001#FF6F03F7001018D0
(1573490731.270893) can0 003#1000000000000000
(1573490731.271131) can0 002#8DCF8D4B00000013
(1573490731.272916) can0 201#06000000400D0300
(1573490731.273080) can0 080#00
(1573490731.273316) can0 181#080000000000
(1573490731.273519) can0 281#181600000400
(1573490731.273728) can0 381#82020A000200
(1573490731.280480) can0 201#06000000400D0300
(1573490731.280661) can0 080#00
(1573490731.280919) can0 181#080000000000
(1573490731.281127) can0 281#181600000400
(1573490731.281335) can0 381#82020A000200
(1573490731.288281) can0 201#06000000400D0300
(1573490731.288451) can0 080#00
(1573490731.288686) can0 181#080000000000
(1573490731.288895) can0 281#181600000400
(1573490731.289102) can0 381#82020A000200
(1573490731.296100) can0 201#06000000400D0300
(1573490731.296272) can0 080#00
(1573490731.296500) can0 181#080000000000
(1573490731.296707) can0 281#181600000400
(1573490731.296934) can0 381#82020A000200
(1573490731.302693) can0 10000002#188DA303F700BE00
(1573490731.304029) can0 201#06000000400D0300
(1573490731.304194) can0 080#00
(1573490731.304421) can0 181#080000000000
(1573490731.304631) can0 281#181600000400
(1573490731.304839) can0 381#82020A000200
(1573490731.311739) can0 201#06000000400D0300
(1573490731.311896) can0 080#00
(1573490731.312129) can0 181#080000000000
(1573490731.312335) can0 281#181600000400
(1573490731.312541) can0 381#82020A000200
(1573490731.319543) can0 201#06000000400D0300
(1573490731.319718) can0 080#00
(1573490731.319976) can0 181#080000000000
(1573490731.320184) can0 281#181600000400
(1573490731.320394) can0 381#82020A000200
(1573490731.327341) can0 201#06000000400D0300
(1573490731.327517) can0 080#00
(1573490731.327739) can0 181#080000000000
(1573490731.327948) can0 281#181600000400
(1573490731.328157) can0 381#82020A000200
(1573490731.335150) can0 201#06000000400D0300
(1573490731.335327) can0 080#00
(1573490731.335550) can0 181#080000000000
(1573490731.335758) can0 281#181600000400
(1573490731.335966) can0 381#83020A000200
(1573490731.342957) can0 201#06000000400D0300
(1573490731.343129) can0 080#00
(1573490731.343358) can0 181#080000000000
(1573490731.343567) can0 281#181600000400
(1573490731.343776) can0 381#82020A000200
(1573490731.350780) can0 201#06000000400D0300
(1573490731.350941) can0 080#00
(1573490731.351173) can0 181#080000000000
(1573490731.351380) can0 281#181600000400
(1573490731.351587) can0 381#82020A000200
(1573490731.356081) can0 234#1122000000000000
(1573490731.358674) can0 201#06000000400D0300
(1573490731.358824) can0 080#00
(1573490731.359064) can0 181#080000000000
(1573490731.359273) can0 281#181600000400
(1573490731.359493) can0 381#82020A000200
(1573490731.361656) can0 036#038DBA00BE8CAC7E
(1573490731.366408) can0 201#06000000400D0300
(1573490731.366583) can0 080#00
(1573490731.366841) can0 181#080000000000
(1573490731.367050) can0 281#181600000400
(1573490731.367257) can0 381#82020A000200
(1573490731.374210) can0 201#06000000400D0300
(1573490731.374381) can0 080#00
(1573490731.374647) can0 181#080000000000
(1573490731.374855) can0 281#181600000400
(1573490731.375089) can0 381#82020A000200
(1573490731.382026) can0 201#06000000400D0300
(1573490731.382196) can0 080#00
(1573490731.382426) can0 181#080000000000
(1573490731.382636) can0 281#181600000400
(1573490731.382890) can0 003#1000000000000000
(1573490731.383127) can0 002#8DCC8D4400000013
(1573490731.383365) can0 001#FF6F03F7001018D0
(1573490731.383573) can0 381#83020A000200
(1573490731.389843) can0 201#06000000400D0300
(1573490731.390013) can0 080#00
(1573490731.390271) can0 181#080000000000
(1573490731.390479) can0 281#181600000400
(1573490731.390704) can0 381#82020A000200
(1573490731.397645) can0 201#06000000400D0300
(1573490731.397816) can0 080#00
(1573490731.398044) can0 181#080000000000
(1573490731.398251) can0 281#181600000400
(1573490731.398473) can0 381#82020A000200
(1573490731.405448) can0 201#06000000400D0300
(1573490731.405623) can0 080#00
(1573490731.405852) can0 181#080000000000
(1573490731.406060) can0 281#181600000400
(1573490731.406268) can0 381#82020A000200
(1573490731.406758) can0 10000002#188D9D03F700BE00
(1573490731.413342) can0 201#06000000400D0300
(1573490731.413487) can0 080#00
(1573490731.413718) can0 181#080000000000
(1573490731.413930) can0 281#181600000400
(1573490731.414136) can0 381#82020A000200
(1573490731.421088) can0 201#06000000400D0300
(1573490731.421273) can0 080#00
(1573490731.421513) can0 181#080000000000
(1573490731.421687) can0 281#181600000400
(1573490731.421917) can0 381#82020A000200
(1573490731.428896) can0 201#06000000400D0300
(1573490731.429068) can0 080#00
(1573490731.429294) can0 181#080000000000
(1573490731.429506) can0 281#181600000400
(1573490731.429711) can0 381#83020A000200
(1573490731.436700) can0 201#06000000400D0300
(1573490731.436871) can0 080#00
(1573490731.437101) can0 181#080000000000
(1573490731.437310) can0 281#181600000400
(1573490731.437518) can0 381#83020A000200
(1573490731.444516) can0 201#06000000400D0300
(1573490731.444692) can0 080#00
(1573490731.444949) can0 181#080000000000
(1573490731.445158) can0 281#181600000400
(1573490731.445366) can0 381#83020A000200
(1573490731.452313) can0 201#06000000400D0300
(1573490731.452490) can0 080#00
(1573490731.452716) can0 181#080000000000
(1573490731.452926) can0 281#181600000400
(1573490731.453138) can0 381#82020A000200
(1573490731.455490) can0 234#1122000000000000
(1573490731.460126) can0 201#06000000400D0300
(1573490731.460297) can0 080#00
(1573490731.460525) can0 181#080000000000
(1573490731.460733) can0 281#181600000400
(1573490731.460941) can0 381#82020A000200
(1573490731.461653) can0 036#048DA900BE8C9557
(1573490731.467946) can0 201#06000000400D0300
(1573490731.468115) can0 080#00
(1573490731.468344) can0 181#080000000000
(1573490731.468554) can0 281#181600000400
(1573490731.468761) can0 381#82020A000200
(1573490731.475740) can0 201#06000000400D0300
(1573490731.475912) can0 080#00
(1573490731.476140) can0 181#080000000000
(1573490731.476349) can0 281#181600000400
(1573490731.476558) can0 381#82020A000200
(1573490731.483552) can0 201#06000000400D0300
(1573490731.483729) can0 080#00
(1573490731.483957) can0 181#080000000000
(1573490731.484166) can0 281#181600000400
(1573490731.484374) can0 381#83020A000200
(1573490731.491420) can0 201#06000000400D0300
(1573490731.491590) can0 080#00
(1573490731.491818) can0 181#080000000000
(1573490731.492027) can0 281#181600000400
(1573490731.492233) can0 381#820209000200
(1573490731.494626) can0 001#FF7003F7001018D0
(1573490731.494881) can0 003#1000000000000000
(1573490731.495118) can0 002#8DD38D4C00000013
(1573490731.499172) can0 201#06000000400D0300
(1573490731.499345) can0 080#00
(1573490731.499579) can0 181#080000000000
(1573490731.499789) can0 281#181600000400
(1573490731.499995) can0 381#82020A000200
(1573490731.506992) can0 201#06000000400D0300
(1573490731.507156) can0 080#00
(1573490731.507385) can0 181#080000000000
(1573490731.507594) can0 281#181600000400
(1573490731.507802) can0 381#83020A000200
(1573490731.510762) can0 10000002#188DA203F700BE00
(1573490731.514807) can0 201#06000000400D0300
(1573490731.514978) can0 080#00
(1573490731.515213) can0 181#080000000000
(1573490731.515416) can0 281#181600000400
(1573490731.515623) can0 381#82020A000200
(1573490731.522640) can0 201#06000000400D0300
(1573490731.522812) can0 080#00
(1573490731.523064) can0 181#080000000000
(1573490731.523270) can0 281#181600000400
(1573490731.523481) can0 381#83020A000200
(1573490731.530428) can0 201#06000000400D0300
(1573490731.530604) can0 080#00
(1573490731.530833) can0 181#080000000000
(1573490731.531042) can0 281#181600000400
(1573490731.531250) can0 381#82020A000200
(1573490731.538242) can0 201#06000000400D0300
(1573490731.538406) can0 080#00
(1573490731.538640) can0 181#080000000000
(1573490731.538848) can0 281#181600000400
(1573490731.539055) can0 381#83020A000200
(1573490731.546061) can0 201#06000000400D0300
(1573490731.546226) can0 080#00
(1573490731.546453) can0 181#080000000000
(1573490731.546661) can0 281#181600000400
(1573490731.546868) can0 381#83020A000200
(1573490731.553866) can0 201#06000000400D0300
(1573490731.554030) can0 080#00
(1573490731.554259) can0 181#080000000000
(1573490731.554466) can0 281#181600000400
(1573490731.554674) can0 381#82020A000200
(1573490731.556199) can0 234#1122000000000000
(1573490731.561648) can0 036#058D8D00BE8C7F26
(1573490731.561896) can0 201#06000000400D0300
(1573490731.562083) can0 080#00
(1573490731.562295) can0 181#080000000000
(1573490731.562504) can0 281#181600000400
(1573490731.562712) can0 381#82020A000200
(1573490731.569479) can0 201#06000000400D0300
(1573490731.569655) can0 080#00
(1573490731.569886) can0 181#080000000000
(1573490731.570094) can0 281#181600000400
(1573490731.570302) can0 381#83020A000200
(1573490731.577282) can0 201#06000000400D0300
(1573490731.577424) can0 080#00
(1573490731.577686) can0 181#080000000000
(1573490731.577893) can0 281#181600000400
(1573490731.578116) can0 381#83020A000200
(1573490731.585114) can0 201#06000000400D0300
(1573490731.585283) can0 080#00
(1573490731.585520) can0 181#080000000000
(1573490731.585721) can0 281#181600000400
(1573490731.585928) can0 381#83020A000200
(1573490731.592909) can0 201#06000000400D0300
(1573490731.593081) can0 080#00
(1573490731.593310) can0 181#080000000000
(1573490731.593517) can0 281#181600000400
(1573490731.593738) can0 381#82020A000200
(1573490731.600741) can0 201#06000000400D0300
(1573490731.600905) can0 080#00
(1573490731.601134) can0 181#080000000000
(1573490731.601343) can0 281#181600000400
(1573490731.601550) can0 381#83020A000200
(1573490731.606626) can0 001#FF6E03F7001018D0
(1573490731.606876) can0 003#1000000000000000
(1573490731.607111) can0 002#8DCD8D4400000013
(1573490731.608784) can0 201#06000000400D0300
(1573490731.608956) can0 080#00
(1573490731.609184) can0 181#080000000000
(1573490731.609393) can0 281#181600000400
(1573490731.609601) can0 381#83020A000200
(1573490731.614748) can0 10000002#188DA003F700BE00
(1573490731.616435) can0 201#06000000400D0300
(1573490731.616602) can0 080#00
(1573490731.616860) can0 181#080000000000
(1573490731.617068) can0 281#181600000400
(1573490731.617274) can0 381#82020A000200
(1573490731.624162) can0 201#06000000400D0300
(1573490731.624328) can0 080#00
(1573490731.624561) can0 181#080000000000
(1573490731.624768) can0 281#181600000400
(1573490731.624978) can0 381#82020A000200
(1573490731.631967) can0 201#06000000400D0300
(1573490731.632138) can0 080#00
(1573490731.632368) can0 181#080000000000
(1573490731.632576) can0 281#181600000400
(1573490731.632784) can0 381#82020A000200
(1573490731.639785) can0 201#06000000400D0300
(1573490731.639952) can0 080#00
(1573490731.640174) can0 181#080000000000
(1573490731.640383) can0 281#181600000400
(1573490731.640601) can0 381#82020A000200
(1573490731.647610) can0 201#06000000400D0300
(1573490731.647778) can0 080#00
(1573490731.648037) can0 181#080000000000
(1573490731.648246) can0 281#181600000400
(1573490731.648459) can0 381#83020A000200
(1573490731.655433) can0 201#06000000400D0300
(1573490731.655587) can0 080#00
